Time [s],Packet ID,Address,Data,Read/Write,ACK/NAK
1.391806500000000,0,0xD0,0x3B,Write,ACK
1.391915500000000,1,0xD1,0xC2,Read,ACK
1.391947000000000,1,0xD1,0xC2,Read,ACK
1.391978500000000,1,0xD1,0x01,Read,ACK
1.392010000000000,1,0xD1,0xE8,Read,ACK
1.392041500000000,1,0xD1,0x02,Read,ACK
1.392072500000000,1,0xD1,0x46,Read,ACK
1.392104000000000,1,0xD1,0xF0,Read,ACK
1.392135500000000,1,0xD1,0xF3,Read,ACK
1.392165500000000,1,0xD1,0xFF,Read,ACK
1.392197000000000,1,0xD1,0xE0,Read,ACK
1.392228500000000,1,0xD1,0xFF,Read,ACK
1.392260000000000,1,0xD1,0xF4,Read,ACK
1.392291500000000,1,0xD1,0xFF,Read,ACK
1.392323000000000,1,0xD1,0xF9,Read,NAK
1.439352500000000,2,0xD0,0x3B,Write,ACK
1.439461500000000,3,0xD1,0xC2,Read,ACK
1.439493000000000,3,0xD1,0x92,Read,ACK
1.439524500000000,3,0xD1,0x01,Read,ACK
1.439556000000000,3,0xD1,0xFC,Read,ACK
1.439587500000000,3,0xD1,0x02,Read,ACK
1.439619000000000,3,0xD1,0x2A,Read,ACK
1.439650500000000,3,0xD1,0xF0,Read,ACK
1.439682000000000,3,0xD1,0xF4,Read,ACK
1.439713500000000,3,0xD1,0xFF,Read,ACK
1.439745000000000,3,0xD1,0xDF,Read,ACK
1.439775000000000,3,0xD1,0xFF,Read,ACK
1.439806500000000,3,0xD1,0xF4,Read,ACK
1.439843500000000,3,0xD1,0xFF,Read,ACK
1.439875000000000,3,0xD1,0xF8,Read,NAK
1.440840500000000,4,0xD0,0x3B,Write,ACK
1.440948500000000,5,0xD1,0xC2,Read,ACK
1.440980000000000,5,0xD1,0xA4,Read,ACK
1.441011500000000,5,0xD1,0x01,Read,ACK
1.441043000000000,5,0xD1,0xFC,Read,ACK
1.441074500000000,5,0xD1,0x02,Read,ACK
1.441105500000000,5,0xD1,0x2C,Read,ACK
1.441137000000000,5,0xD1,0xF0,Read,ACK
1.441168500000000,5,0xD1,0xF4,Read,ACK
1.441216000000000,5,0xD1,0xFF,Read,ACK
1.441247000000000,5,0xD1,0xDF,Read,ACK
1.441278500000000,5,0xD1,0xFF,Read,ACK
1.441310000000000,5,0xD1,0xF3,Read,ACK
1.441341500000000,5,0xD1,0xFF,Read,ACK
1.441373000000000,5,0xD1,0xF8,Read,NAK
1.446363500000000,6,0xD0,0x3B,Write,ACK
1.446473000000000,7,0xD1,0xC2,Read,ACK
1.446504500000000,7,0xD1,0x94,Read,ACK
1.446536000000000,7,0xD1,0x01,Read,ACK
1.446567500000000,7,0xD1,0xE4,Read,ACK
1.446599000000000,7,0xD1,0x01,Read,ACK
1.446630500000000,7,0xD1,0xFC,Read,ACK
1.446662000000000,7,0xD1,0xF0,Read,ACK
1.446693000000000,7,0xD1,0xF7,Read,ACK
1.446724500000000,7,0xD1,0xFF,Read,ACK
1.446756000000000,7,0xD1,0xE0,Read,ACK
1.446787500000000,7,0xD1,0xFF,Read,ACK
1.446817000000000,7,0xD1,0xF3,Read,ACK
1.446848500000000,7,0xD1,0xFF,Read,ACK
1.446880000000000,7,0xD1,0xF8,Read,NAK
1.447061500000000,8,0xD0,0x3B,Write,ACK
1.447170500000000,9,0xD1,0xC2,Read,ACK
1.447202000000000,9,0xD1,0x94,Read,ACK
1.447233500000000,9,0xD1,0x01,Read,ACK
1.447264500000000,9,0xD1,0xE4,Read,ACK
1.447296000000000,9,0xD1,0x01,Read,ACK
1.447327500000000,9,0xD1,0xFC,Read,ACK
1.447359000000000,9,0xD1,0xF0,Read,ACK
1.447390500000000,9,0xD1,0xF7,Read,ACK
1.447431500000000,9,0xD1,0xFF,Read,ACK
1.447462500000000,9,0xD1,0xE0,Read,ACK
1.447494000000000,9,0xD1,0xFF,Read,ACK
1.447525500000000,9,0xD1,0xF3,Read,ACK
1.447557000000000,9,0xD1,0xFF,Read,ACK
1.447588500000000,9,0xD1,0xF8,Read,NAK
1.447755000000000,10,0xD0,0x3B,Write,ACK
1.447873000000000,11,0xD1,0xC2,Read,ACK
1.447904500000000,11,0xD1,0x94,Read,ACK
1.447936000000000,11,0xD1,0x01,Read,ACK
1.447967000000000,11,0xD1,0xE4,Read,ACK
1.447998500000000,11,0xD1,0x01,Read,ACK
1.448031500000000,11,0xD1,0xFC,Read,ACK
1.448061500000000,11,0xD1,0xF0,Read,ACK
1.448093000000000,11,0xD1,0xF7,Read,ACK
1.448124500000000,11,0xD1,0xFF,Read,ACK
1.448156000000000,11,0xD1,0xE0,Read,ACK
1.448187000000000,11,0xD1,0xFF,Read,ACK
1.448218500000000,11,0xD1,0xF3,Read,ACK
1.448250000000000,11,0xD1,0xFF,Read,ACK
1.448281500000000,11,0xD1,0xF8,Read,NAK
1.448464000000000,12,0xD0,0x3B,Write,ACK
1.448573000000000,13,0xD1,0xC2,Read,ACK
1.448604500000000,13,0xD1,0x94,Read,ACK
1.448636000000000,13,0xD1,0x01,Read,ACK
1.448667500000000,13,0xD1,0xE4,Read,ACK
1.448699000000000,13,0xD1,0x01,Read,ACK
1.448730000000000,13,0xD1,0xFC,Read,ACK
1.448761500000000,13,0xD1,0xF0,Read,ACK
1.448793000000000,13,0xD1,0xF7,Read,ACK
1.448824500000000,13,0xD1,0xFF,Read,ACK
1.448856500000000,13,0xD1,0xE0,Read,ACK
1.448888000000000,13,0xD1,0xFF,Read,ACK
1.448919000000000,13,0xD1,0xF3,Read,ACK
1.448950500000000,13,0xD1,0xFF,Read,ACK
1.448982000000000,13,0xD1,0xF8,Read,NAK
1.449164000000000,14,0xD0,0x3B,Write,ACK
1.449273000000000,15,0xD1,0xC2,Read,ACK
1.449304500000000,15,0xD1,0x94,Read,ACK
1.449336000000000,15,0xD1,0x01,Read,ACK
1.449367500000000,15,0xD1,0xE4,Read,ACK
1.449399000000000,15,0xD1,0x01,Read,ACK
1.449430000000000,15,0xD1,0xFC,Read,ACK
1.449461500000000,15,0xD1,0xF0,Read,ACK
1.449500500000000,15,0xD1,0xF7,Read,ACK
1.449532000000000,15,0xD1,0xFF,Read,ACK
1.449563000000000,15,0xD1,0xE0,Read,ACK
1.449594500000000,15,0xD1,0xFF,Read,ACK
1.449626000000000,15,0xD1,0xF3,Read,ACK
1.449657500000000,15,0xD1,0xFF,Read,ACK
1.449689000000000,15,0xD1,0xF8,Read,NAK
1.449854500000000,16,0xD0,0x3B,Write,ACK
1.449963000000000,17,0xD1,0xC2,Read,ACK
1.449994500000000,17,0xD1,0x90,Read,ACK
1.450024500000000,17,0xD1,0x01,Read,ACK
1.450055500000000,17,0xD1,0xCE,Read,ACK
1.450086500000000,17,0xD1,0x02,Read,ACK
1.450125000000000,17,0xD1,0x36,Read,ACK
1.450156500000000,17,0xD1,0xF0,Read,ACK
1.450188000000000,17,0xD1,0xFC,Read,ACK
1.450219000000000,17,0xD1,0xFF,Read,ACK
1.450250500000000,17,0xD1,0xDF,Read,ACK
1.450282000000000,17,0xD1,0xFF,Read,ACK
1.450313500000000,17,0xD1,0xF3,Read,ACK
1.450345000000000,17,0xD1,0xFF,Read,ACK
1.450376500000000,17,0xD1,0xF9,Read,NAK
1.450558000000000,18,0xD0,0x3B,Write,ACK
1.450667000000000,19,0xD1,0xC2,Read,ACK
1.450698500000000,19,0xD1,0x90,Read,ACK
1.450729500000000,19,0xD1,0x01,Read,ACK
1.450761000000000,19,0xD1,0xCE,Read,ACK
1.450792500000000,19,0xD1,0x02,Read,ACK
1.450824000000000,19,0xD1,0x36,Read,ACK
1.450855500000000,19,0xD1,0xF0,Read,ACK
1.450895500000000,19,0xD1,0xFC,Read,ACK
1.450927000000000,19,0xD1,0xFF,Read,ACK
1.450958500000000,19,0xD1,0xDF,Read,ACK
1.450990000000000,19,0xD1,0xFF,Read,ACK
1.451021500000000,19,0xD1,0xF3,Read,ACK
1.451053000000000,19,0xD1,0xFF,Read,ACK
1.451084500000000,19,0xD1,0xF9,Read,NAK
1.451258000000000,20,0xD0,0x3B,Write,ACK
1.451367000000000,21,0xD1,0xC2,Read,ACK
1.451398500000000,21,0xD1,0x90,Read,ACK
1.451430000000000,21,0xD1,0x01,Read,ACK
1.451461500000000,21,0xD1,0xCE,Read,ACK
1.451493000000000,21,0xD1,0x02,Read,ACK
1.451524500000000,21,0xD1,0x36,Read,ACK
1.451571500000000,21,0xD1,0xF0,Read,ACK
1.451603000000000,21,0xD1,0xFC,Read,ACK
1.451634500000000,21,0xD1,0xFF,Read,ACK
1.451666000000000,21,0xD1,0xDF,Read,ACK
1.451697000000000,21,0xD1,0xFF,Read,ACK
1.451728500000000,21,0xD1,0xF3,Read,ACK
1.451760000000000,21,0xD1,0xFF,Read,ACK
1.451791500000000,21,0xD1,0xF9,Read,NAK
1.451966000000000,22,0xD0,0x3B,Write,ACK
1.452075000000000,23,0xD1,0xC2,Read,ACK
1.452106500000000,23,0xD1,0x90,Read,ACK
1.452137000000000,23,0xD1,0x01,Read,ACK
1.452168500000000,23,0xD1,0xCE,Read,ACK
1.452198500000000,23,0xD1,0x02,Read,ACK
1.452230000000000,23,0xD1,0x36,Read,ACK
1.452261500000000,23,0xD1,0xF0,Read,ACK
1.452293000000000,23,0xD1,0xFC,Read,ACK
1.452324500000000,23,0xD1,0xFF,Read,ACK
1.452356000000000,23,0xD1,0xDF,Read,ACK
1.452387000000000,23,0xD1,0xFF,Read,ACK
1.452418500000000,23,0xD1,0xF3,Read,ACK
1.452450000000000,23,0xD1,0xFF,Read,ACK
1.452481500000000,23,0xD1,0xF9,Read,NAK
1.452662500000000,24,0xD0,0x3B,Write,ACK
1.452771500000000,25,0xD1,0xC2,Read,ACK
1.452803000000000,25,0xD1,0x90,Read,ACK
1.452834500000000,25,0xD1,0x01,Read,ACK
1.452866000000000,25,0xD1,0xCE,Read,ACK
1.452897500000000,25,0xD1,0x02,Read,ACK
1.452929000000000,25,0xD1,0x36,Read,ACK
1.452958500000000,25,0xD1,0xF0,Read,ACK
1.452990000000000,25,0xD1,0xFC,Read,ACK
1.453021500000000,25,0xD1,0xFF,Read,ACK
1.453052500000000,25,0xD1,0xDF,Read,ACK
1.453084000000000,25,0xD1,0xFF,Read,ACK
1.453115500000000,25,0xD1,0xF3,Read,ACK
1.453146000000000,25,0xD1,0xFF,Read,ACK
1.453177500000000,25,0xD1,0xF9,Read,NAK
1.453352500000000,26,0xD0,0x3B,Write,ACK
1.453461500000000,27,0xD1,0xC2,Read,ACK
1.453493000000000,27,0xD1,0x90,Read,ACK
1.453524500000000,27,0xD1,0x01,Read,ACK
1.453556000000000,27,0xD1,0xCE,Read,ACK
1.453587500000000,27,0xD1,0x02,Read,ACK
1.453634500000000,27,0xD1,0x36,Read,ACK
1.453666000000000,27,0xD1,0xF0,Read,ACK
1.453697500000000,27,0xD1,0xFC,Read,ACK
1.453729000000000,27,0xD1,0xFF,Read,ACK
1.453760500000000,27,0xD1,0xDF,Read,ACK
1.453791500000000,27,0xD1,0xFF,Read,ACK
1.453823000000000,27,0xD1,0xF3,Read,ACK
1.453854500000000,27,0xD1,0xFF,Read,ACK
1.453886000000000,27,0xD1,0xF9,Read,NAK
1.454060500000000,28,0xD0,0x3B,Write,ACK
1.454168500000000,29,0xD1,0xC2,Read,ACK
1.454200000000000,29,0xD1,0x90,Read,ACK
1.454231500000000,29,0xD1,0x01,Read,ACK
1.454266000000000,29,0xD1,0xCE,Read,ACK
1.454297000000000,29,0xD1,0x02,Read,ACK
1.454328500000000,29,0xD1,0x36,Read,ACK
1.454360000000000,29,0xD1,0xF0,Read,ACK
1.454391500000000,29,0xD1,0xFC,Read,ACK
1.454423000000000,29,0xD1,0xFF,Read,ACK
1.454454500000000,29,0xD1,0xDF,Read,ACK
1.454486000000000,29,0xD1,0xFF,Read,ACK
1.454517500000000,29,0xD1,0xF3,Read,ACK
1.454549000000000,29,0xD1,0xFF,Read,ACK
1.454580000000000,29,0xD1,0xF9,Read,NAK
1.454761500000000,30,0xD0,0x3B,Write,ACK
1.454870500000000,31,0xD1,0xC2,Read,ACK
1.454902000000000,31,0xD1,0x90,Read,ACK
1.454933500000000,31,0xD1,0x01,Read,ACK
1.454965000000000,31,0xD1,0xCE,Read,ACK
1.454996500000000,31,0xD1,0x02,Read,ACK
1.455028000000000,31,0xD1,0x36,Read,ACK
1.455059000000000,31,0xD1,0xF0,Read,ACK
1.455090500000000,31,0xD1,0xFC,Read,ACK
1.455131000000000,31,0xD1,0xFF,Read,ACK
1.455162500000000,31,0xD1,0xDF,Read,ACK
1.455193000000000,31,0xD1,0xFF,Read,ACK
1.455224500000000,31,0xD1,0xF3,Read,ACK
1.455256000000000,31,0xD1,0xFF,Read,ACK
1.455296500000000,31,0xD1,0xF9,Read,NAK
1.455463000000000,32,0xD0,0x3B,Write,ACK
1.455571500000000,33,0xD1,0xC2,Read,ACK
1.455603000000000,33,0xD1,0x9C,Read,ACK
1.455634500000000,33,0xD1,0x01,Read,ACK
1.455666000000000,33,0xD1,0xEC,Read,ACK
1.455711000000000,33,0xD1,0x02,Read,ACK
1.455742500000000,33,0xD1,0x72,Read,ACK
1.455774000000000,33,0xD1,0xF0,Read,ACK
1.455805500000000,33,0xD1,0xF7,Read,ACK
1.455837000000000,33,0xD1,0xFF,Read,ACK
1.455868500000000,33,0xD1,0xDF,Read,ACK
1.455900000000000,33,0xD1,0xFF,Read,ACK
1.455931000000000,33,0xD1,0xF2,Read,ACK
1.455962500000000,33,0xD1,0xFF,Read,ACK
1.455994000000000,33,0xD1,0xF9,Read,NAK
1.456158000000000,34,0xD0,0x3B,Write,ACK
1.456272500000000,35,0xD1,0xC2,Read,ACK
1.456304000000000,35,0xD1,0x9C,Read,ACK
1.456336500000000,35,0xD1,0x01,Read,ACK
1.456367500000000,35,0xD1,0xEC,Read,ACK
1.456399000000000,35,0xD1,0x02,Read,ACK
1.456430500000000,35,0xD1,0x72,Read,ACK
1.456462000000000,35,0xD1,0xF0,Read,ACK
1.456493500000000,35,0xD1,0xF7,Read,ACK
1.456525000000000,35,0xD1,0xFF,Read,ACK
1.456556500000000,35,0xD1,0xDF,Read,ACK
1.456588000000000,35,0xD1,0xFF,Read,ACK
1.456619000000000,35,0xD1,0xF2,Read,ACK
1.456650500000000,35,0xD1,0xFF,Read,ACK
1.456682000000000,35,0xD1,0xF9,Read,NAK
1.456864500000000,36,0xD0,0x3B,Write,ACK
1.456973500000000,37,0xD1,0xC2,Read,ACK
1.457005000000000,37,0xD1,0x9C,Read,ACK
1.457039000000000,37,0xD1,0x01,Read,ACK
1.457070000000000,37,0xD1,0xEC,Read,ACK
1.457101500000000,37,0xD1,0x02,Read,ACK
1.457133000000000,37,0xD1,0x72,Read,ACK
1.457164500000000,37,0xD1,0xF0,Read,ACK
1.457196000000000,37,0xD1,0xF7,Read,ACK
1.457233000000000,37,0xD1,0xFF,Read,ACK
1.457264500000000,37,0xD1,0xDF,Read,ACK
1.457296000000000,37,0xD1,0xFF,Read,ACK
1.457327500000000,37,0xD1,0xF2,Read,ACK
1.457368000000000,37,0xD1,0xFF,Read,ACK
1.457399500000000,37,0xD1,0xF9,Read,NAK
1.462401000000000,38,0xD0,0x3B,Write,ACK
1.462510000000000,39,0xD1,0xC2,Read,ACK
1.462546500000000,39,0xD1,0xBC,Read,ACK
1.462578000000000,39,0xD1,0x01,Read,ACK
1.462609500000000,39,0xD1,0xE4,Read,ACK
1.462640500000000,39,0xD1,0x02,Read,ACK
1.462672000000000,39,0xD1,0x68,Read,ACK
1.462703500000000,39,0xD1,0xF0,Read,ACK
1.462735000000000,39,0xD1,0xF0,Read,ACK
1.462766500000000,39,0xD1,0xFF,Read,ACK
1.462798000000000,39,0xD1,0xDF,Read,ACK
1.462829500000000,39,0xD1,0xFF,Read,ACK
1.462861000000000,39,0xD1,0xF3,Read,ACK
1.462892500000000,39,0xD1,0xFF,Read,ACK
1.462923500000000,39,0xD1,0xF9,Read,NAK
1.463090500000000,40,0xD0,0x3B,Write,ACK
1.463208000000000,41,0xD1,0xC2,Read,ACK
1.463239500000000,41,0xD1,0xBC,Read,ACK
1.463271000000000,41,0xD1,0x01,Read,ACK
1.463302500000000,41,0xD1,0xE4,Read,ACK
1.463334000000000,41,0xD1,0x02,Read,ACK
1.463371000000000,41,0xD1,0x68,Read,ACK
1.463402500000000,41,0xD1,0xF0,Read,ACK
1.463434000000000,41,0xD1,0xF0,Read,ACK
1.463465000000000,41,0xD1,0xFF,Read,ACK
1.463496500000000,41,0xD1,0xDF,Read,ACK
1.463528000000000,41,0xD1,0xFF,Read,ACK
1.463559500000000,41,0xD1,0xF3,Read,ACK
1.463589500000000,41,0xD1,0xFF,Read,ACK
1.463621000000000,41,0xD1,0xF9,Read,NAK
1.463787500000000,42,0xD0,0x3B,Write,ACK
1.463896500000000,43,0xD1,0xC2,Read,ACK
1.463928000000000,43,0xD1,0xBC,Read,ACK
1.463959500000000,43,0xD1,0x01,Read,ACK
1.463991500000000,43,0xD1,0xE4,Read,ACK
1.464023000000000,43,0xD1,0x02,Read,ACK
1.464054500000000,43,0xD1,0x68,Read,ACK
1.464086000000000,43,0xD1,0xF0,Read,ACK
1.464117500000000,43,0xD1,0xF0,Read,ACK
1.464149000000000,43,0xD1,0xFF,Read,ACK
1.464180500000000,43,0xD1,0xDF,Read,ACK
1.464210000000000,43,0xD1,0xFF,Read,ACK
1.464241500000000,43,0xD1,0xF3,Read,ACK
1.464273000000000,43,0xD1,0xFF,Read,ACK
1.464304000000000,43,0xD1,0xF9,Read,NAK
1.464476500000000,44,0xD0,0x3B,Write,ACK
1.464585500000000,45,0xD1,0xC2,Read,ACK
1.464615500000000,45,0xD1,0xBC,Read,ACK
1.464647000000000,45,0xD1,0x01,Read,ACK
1.464678000000000,45,0xD1,0xE4,Read,ACK
1.464709500000000,45,0xD1,0x02,Read,ACK
1.464741000000000,45,0xD1,0x68,Read,ACK
1.464772500000000,45,0xD1,0xF0,Read,ACK
1.464804000000000,45,0xD1,0xF0,Read,ACK
1.464835500000000,45,0xD1,0xFF,Read,ACK
1.464867000000000,45,0xD1,0xDF,Read,ACK
1.464898500000000,45,0xD1,0xFF,Read,ACK
1.464929500000000,45,0xD1,0xF3,Read,ACK
1.464961000000000,45,0xD1,0xFF,Read,ACK
1.464992500000000,45,0xD1,0xF9,Read,NAK
1.465161500000000,46,0xD0,0x3B,Write,ACK
1.465279500000000,47,0xD1,0xC2,Read,ACK
1.465311000000000,47,0xD1,0xD0,Read,ACK
1.465342500000000,47,0xD1,0x02,Read,ACK
1.465374000000000,47,0xD1,0x00,Read,ACK
1.465410500000000,47,0xD1,0x02,Read,ACK
1.465442000000000,47,0xD1,0x4C,Read,ACK
1.465473500000000,47,0xD1,0xF0,Read,ACK
1.465505000000000,47,0xD1,0xF0,Read,ACK
1.465536500000000,47,0xD1,0xFF,Read,ACK
1.465568000000000,47,0xD1,0xDF,Read,ACK
1.465599500000000,47,0xD1,0xFF,Read,ACK
1.465631000000000,47,0xD1,0xF2,Read,ACK
1.465661000000000,47,0xD1,0xFF,Read,ACK
1.465692000000000,47,0xD1,0xF9,Read,NAK
1.465858000000000,48,0xD0,0x3B,Write,ACK
1.465967000000000,49,0xD1,0xC2,Read,ACK
1.465998500000000,49,0xD1,0xD0,Read,ACK
1.466030000000000,49,0xD1,0x02,Read,ACK
1.466062000000000,49,0xD1,0x00,Read,ACK
1.466093500000000,49,0xD1,0x02,Read,ACK
1.466125000000000,49,0xD1,0x4C,Read,ACK
1.466156500000000,49,0xD1,0xF0,Read,ACK
1.466188000000000,49,0xD1,0xF0,Read,ACK
1.466219500000000,49,0xD1,0xFF,Read,ACK
1.466249000000000,49,0xD1,0xDF,Read,ACK
1.466280500000000,49,0xD1,0xFF,Read,ACK
1.466312000000000,49,0xD1,0xF2,Read,ACK
1.466343500000000,49,0xD1,0xFF,Read,ACK
1.466374500000000,49,0xD1,0xF9,Read,NAK
1.466546500000000,50,0xD0,0x3B,Write,ACK
1.466655500000000,51,0xD1,0xC2,Read,ACK
1.466687500000000,51,0xD1,0xD0,Read,ACK
1.466719000000000,51,0xD1,0x02,Read,ACK
1.466750500000000,51,0xD1,0x00,Read,ACK
1.466782000000000,51,0xD1,0x02,Read,ACK
1.466813500000000,51,0xD1,0x4C,Read,ACK
1.466845000000000,51,0xD1,0xF0,Read,ACK
1.466876500000000,51,0xD1,0xF0,Read,ACK
1.466907500000000,51,0xD1,0xFF,Read,ACK
1.466939000000000,51,0xD1,0xDF,Read,ACK
1.466970500000000,51,0xD1,0xFF,Read,ACK
1.467002000000000,51,0xD1,0xF2,Read,ACK
1.467033500000000,51,0xD1,0xFF,Read,ACK
1.467065000000000,51,0xD1,0xF9,Read,NAK
1.467231500000000,52,0xD0,0x3B,Write,ACK
1.467345000000000,53,0xD1,0xC2,Read,ACK
1.467376500000000,53,0xD1,0xD0,Read,ACK
1.467408000000000,53,0xD1,0x02,Read,ACK
1.467439500000000,53,0xD1,0x00,Read,ACK
1.467470000000000,53,0xD1,0x02,Read,ACK
1.467501500000000,53,0xD1,0x4C,Read,ACK
1.467533000000000,53,0xD1,0xF0,Read,ACK
1.467564500000000,53,0xD1,0xF0,Read,ACK
1.467596000000000,53,0xD1,0xFF,Read,ACK
1.467627500000000,53,0xD1,0xDF,Read,ACK
1.467659000000000,53,0xD1,0xFF,Read,ACK
1.467690000000000,53,0xD1,0xF2,Read,ACK
1.467722500000000,53,0xD1,0xFF,Read,ACK
1.467754000000000,53,0xD1,0xF9,Read,NAK
1.467920000000000,54,0xD0,0x3B,Write,ACK
1.468029000000000,55,0xD1,0xC2,Read,ACK
1.468060500000000,55,0xD1,0xD0,Read,ACK
1.468092000000000,55,0xD1,0x02,Read,ACK
1.468132500000000,55,0xD1,0x00,Read,ACK
1.468164000000000,55,0xD1,0x02,Read,ACK
1.468195500000000,55,0xD1,0x4C,Read,ACK
1.468227000000000,55,0xD1,0xF0,Read,ACK
1.468258500000000,55,0xD1,0xF0,Read,ACK
1.468290000000000,55,0xD1,0xFF,Read,ACK
1.468321500000000,55,0xD1,0xDF,Read,ACK
1.468353000000000,55,0xD1,0xFF,Read,ACK
1.468384500000000,55,0xD1,0xF2,Read,ACK
1.468416000000000,55,0xD1,0xFF,Read,ACK
1.468447500000000,55,0xD1,0xF9,Read,NAK
1.468618500000000,56,0xD0,0x3B,Write,ACK
1.468727500000000,57,0xD1,0xC2,Read,ACK
1.468757500000000,57,0xD1,0xD0,Read,ACK
1.468789000000000,57,0xD1,0x02,Read,ACK
1.468820500000000,57,0xD1,0x00,Read,ACK
1.468852000000000,57,0xD1,0x02,Read,ACK
1.468883500000000,57,0xD1,0x4C,Read,ACK
1.468915000000000,57,0xD1,0xF0,Read,ACK
1.468946500000000,57,0xD1,0xF0,Read,ACK
1.468978000000000,57,0xD1,0xFF,Read,ACK
1.469009000000000,57,0xD1,0xDF,Read,ACK
1.469040500000000,57,0xD1,0xFF,Read,ACK
1.469072000000000,57,0xD1,0xF2,Read,ACK
1.469103500000000,57,0xD1,0xFF,Read,ACK
1.469141500000000,57,0xD1,0xF9,Read,NAK
1.469306500000000,58,0xD0,0x3B,Write,ACK
1.469415000000000,59,0xD1,0xC2,Read,ACK
1.469446500000000,59,0xD1,0xD0,Read,ACK
1.469478000000000,59,0xD1,0x02,Read,ACK
1.469508500000000,59,0xD1,0x00,Read,ACK
1.469540000000000,59,0xD1,0x02,Read,ACK
1.469571500000000,59,0xD1,0x4C,Read,ACK
1.469603000000000,59,0xD1,0xF0,Read,ACK
1.469634500000000,59,0xD1,0xF0,Read,ACK
1.469666000000000,59,0xD1,0xFF,Read,ACK
1.469697500000000,59,0xD1,0xDF,Read,ACK
1.469729000000000,59,0xD1,0xFF,Read,ACK
1.469760000000000,59,0xD1,0xF2,Read,ACK
1.469792500000000,59,0xD1,0xFF,Read,ACK
1.469824000000000,59,0xD1,0xF9,Read,NAK
1.469989500000000,60,0xD0,0x3B,Write,ACK
1.470098500000000,61,0xD1,0xC2,Read,ACK
1.470130000000000,61,0xD1,0xBE,Read,ACK
1.470161500000000,61,0xD1,0x01,Read,ACK
1.470202500000000,61,0xD1,0xE6,Read,ACK
1.470234000000000,61,0xD1,0x02,Read,ACK
1.470265500000000,61,0xD1,0x6C,Read,ACK
1.470296500000000,61,0xD1,0xF0,Read,ACK
1.470335000000000,61,0xD1,0xF2,Read,ACK
1.470366500000000,61,0xD1,0xFF,Read,ACK
1.470397500000000,61,0xD1,0xE0,Read,ACK
1.470429000000000,61,0xD1,0xFF,Read,ACK
1.470460500000000,61,0xD1,0xF3,Read,ACK
1.470492000000000,61,0xD1,0xFF,Read,ACK
1.470529000000000,61,0xD1,0xF8,Read,NAK
1.470695000000000,62,0xD0,0x3B,Write,ACK
1.470804000000000,63,0xD1,0xC2,Read,ACK
1.470834000000000,63,0xD1,0xBE,Read,ACK
1.470865500000000,63,0xD1,0x01,Read,ACK
1.470897000000000,63,0xD1,0xE6,Read,ACK
1.470928500000000,63,0xD1,0x02,Read,ACK
1.470960000000000,63,0xD1,0x6C,Read,ACK
1.470991500000000,63,0xD1,0xF0,Read,ACK
1.471023000000000,63,0xD1,0xF2,Read,ACK
1.471054000000000,63,0xD1,0xFF,Read,ACK
1.471085500000000,63,0xD1,0xE0,Read,ACK
1.471117000000000,63,0xD1,0xFF,Read,ACK
1.471148500000000,63,0xD1,0xF3,Read,ACK
1.471180000000000,63,0xD1,0xFF,Read,ACK
1.471211500000000,63,0xD1,0xF8,Read,NAK
1.471384500000000,64,0xD0,0x3B,Write,ACK
1.471493500000000,65,0xD1,0xC2,Read,ACK
1.471525000000000,65,0xD1,0xBE,Read,ACK
1.471555500000000,65,0xD1,0x01,Read,ACK
1.471587000000000,65,0xD1,0xE6,Read,ACK
1.471618500000000,65,0xD1,0x02,Read,ACK
1.471649500000000,65,0xD1,0x6C,Read,ACK
1.471681000000000,65,0xD1,0xF0,Read,ACK
1.471712500000000,65,0xD1,0xF2,Read,ACK
1.471744000000000,65,0xD1,0xFF,Read,ACK
1.471775500000000,65,0xD1,0xE0,Read,ACK
1.471807000000000,65,0xD1,0xFF,Read,ACK
1.471838500000000,65,0xD1,0xF3,Read,ACK
1.471868500000000,65,0xD1,0xFF,Read,ACK
1.471900000000000,65,0xD1,0xF8,Read,NAK
1.472065000000000,66,0xD0,0x3B,Write,ACK
1.472174000000000,67,0xD1,0xC2,Read,ACK
1.472205500000000,67,0xD1,0xBE,Read,ACK
1.472237000000000,67,0xD1,0x01,Read,ACK
1.472271500000000,67,0xD1,0xE6,Read,ACK
1.472303000000000,67,0xD1,0x02,Read,ACK
1.472334500000000,67,0xD1,0x6C,Read,ACK
1.472374500000000,67,0xD1,0xF0,Read,ACK
1.472406000000000,67,0xD1,0xF2,Read,ACK
1.472437500000000,67,0xD1,0xFF,Read,ACK
1.472469000000000,67,0xD1,0xE0,Read,ACK
1.472500500000000,67,0xD1,0xFF,Read,ACK
1.472532000000000,67,0xD1,0xF3,Read,ACK
1.472563000000000,67,0xD1,0xFF,Read,ACK
1.472593500000000,67,0xD1,0xF8,Read,NAK
1.472760000000000,68,0xD0,0x3B,Write,ACK
1.472869000000000,69,0xD1,0xC2,Read,ACK
1.472899000000000,69,0xD1,0xBE,Read,ACK
1.472930500000000,69,0xD1,0x01,Read,ACK
1.472962000000000,69,0xD1,0xE6,Read,ACK
1.472993500000000,69,0xD1,0x02,Read,ACK
1.473025000000000,69,0xD1,0x6C,Read,ACK
1.473056500000000,69,0xD1,0xF0,Read,ACK
1.473088000000000,69,0xD1,0xF2,Read,ACK
1.473119500000000,69,0xD1,0xFF,Read,ACK
1.473150500000000,69,0xD1,0xE0,Read,ACK
1.473182000000000,69,0xD1,0xFF,Read,ACK
1.473213500000000,69,0xD1,0xF3,Read,ACK
1.473245000000000,69,0xD1,0xFF,Read,ACK
1.473276500000000,69,0xD1,0xF8,Read,NAK
1.478304000000000,70,0xD0,0x3B,Write,ACK
1.478413000000000,71,0xD1,0xC2,Read,ACK
1.478444500000000,71,0xD1,0xD8,Read,ACK
1.478483000000000,71,0xD1,0x01,Read,ACK
1.478514500000000,71,0xD1,0xE4,Read,ACK
1.478548500000000,71,0xD1,0x02,Read,ACK
1.478579500000000,71,0xD1,0x14,Read,ACK
1.478611000000000,71,0xD1,0xF0,Read,ACK
1.478642500000000,71,0xD1,0xF5,Read,ACK
1.478674000000000,71,0xD1,0xFF,Read,ACK
1.478711000000000,71,0xD1,0xE0,Read,ACK
1.478742500000000,71,0xD1,0xFF,Read,ACK
1.478774000000000,71,0xD1,0xF3,Read,ACK
1.478805500000000,71,0xD1,0xFF,Read,ACK
1.478836500000000,71,0xD1,0xF9,Read,NAK
1.479003500000000,72,0xD0,0x3B,Write,ACK
1.479111000000000,73,0xD1,0xC2,Read,ACK
1.479142500000000,73,0xD1,0xD8,Read,ACK
1.479174000000000,73,0xD1,0x01,Read,ACK
1.479205500000000,73,0xD1,0xE4,Read,ACK
1.479237000000000,73,0xD1,0x02,Read,ACK
1.479268500000000,73,0xD1,0x14,Read,ACK
1.479300000000000,73,0xD1,0xF0,Read,ACK
1.479331500000000,73,0xD1,0xF5,Read,ACK
1.479362500000000,73,0xD1,0xFF,Read,ACK
1.479394000000000,73,0xD1,0xE0,Read,ACK
1.479425500000000,73,0xD1,0xFF,Read,ACK
1.479457000000000,73,0xD1,0xF3,Read,ACK
1.479488500000000,73,0xD1,0xFF,Read,ACK
1.479518500000000,73,0xD1,0xF9,Read,NAK
1.479683000000000,74,0xD0,0x3B,Write,ACK
1.479797500000000,75,0xD1,0xC2,Read,ACK
1.479829000000000,75,0xD1,0xD8,Read,ACK
1.479860500000000,75,0xD1,0x01,Read,ACK
1.479892000000000,75,0xD1,0xE4,Read,ACK
1.479923500000000,75,0xD1,0x02,Read,ACK
1.479954500000000,75,0xD1,0x14,Read,ACK
1.479986000000000,75,0xD1,0xF0,Read,ACK
1.480017500000000,75,0xD1,0xF5,Read,ACK
1.480049000000000,75,0xD1,0xFF,Read,ACK
1.480080500000000,75,0xD1,0xE0,Read,ACK
1.480112000000000,75,0xD1,0xFF,Read,ACK
1.480144000000000,75,0xD1,0xF3,Read,ACK
1.480175500000000,75,0xD1,0xFF,Read,ACK
1.480207000000000,75,0xD1,0xF9,Read,NAK
1.480374500000000,76,0xD0,0x3B,Write,ACK
1.480483500000000,77,0xD1,0xC2,Read,ACK
1.480514500000000,77,0xD1,0xD2,Read,ACK
1.480562500000000,77,0xD1,0x01,Read,ACK
1.480593500000000,77,0xD1,0xE4,Read,ACK
1.480625000000000,77,0xD1,0x02,Read,ACK
1.480656500000000,77,0xD1,0x24,Read,ACK
1.480688000000000,77,0xD1,0xF0,Read,ACK
1.480719500000000,77,0xD1,0xFB,Read,ACK
1.480756500000000,77,0xD1,0xFF,Read,ACK
1.480788000000000,77,0xD1,0xDF,Read,ACK
1.480819500000000,77,0xD1,0xFF,Read,ACK
1.480850500000000,77,0xD1,0xF3,Read,ACK
1.480882000000000,77,0xD1,0xFF,Read,ACK
1.480913500000000,77,0xD1,0xF9,Read,NAK
1.481080000000000,78,0xD0,0x3B,Write,ACK
1.481187500000000,79,0xD1,0xC2,Read,ACK
1.481219000000000,79,0xD1,0xD2,Read,ACK
1.481250500000000,79,0xD1,0x01,Read,ACK
1.481282000000000,79,0xD1,0xE4,Read,ACK
1.481313500000000,79,0xD1,0x02,Read,ACK
1.481345000000000,79,0xD1,0x24,Read,ACK
1.481376500000000,79,0xD1,0xF0,Read,ACK
1.481407500000000,79,0xD1,0xFB,Read,ACK
1.481439000000000,79,0xD1,0xFF,Read,ACK
1.481470500000000,79,0xD1,0xDF,Read,ACK
1.481502000000000,79,0xD1,0xFF,Read,ACK
1.481533500000000,79,0xD1,0xF3,Read,ACK
1.481580500000000,79,0xD1,0xFF,Read,ACK
1.481610500000000,79,0xD1,0xF9,Read,NAK
1.481781000000000,80,0xD0,0x3B,Write,ACK
1.481890000000000,81,0xD1,0xC2,Read,ACK
1.481921500000000,81,0xD1,0xD2,Read,ACK
1.481953000000000,81,0xD1,0x01,Read,ACK
1.481984500000000,81,0xD1,0xE4,Read,ACK
1.482016000000000,81,0xD1,0x02,Read,ACK
1.482047500000000,81,0xD1,0x24,Read,ACK
1.482078500000000,81,0xD1,0xF0,Read,ACK
1.482110000000000,81,0xD1,0xFB,Read,ACK
1.482141500000000,81,0xD1,0xFF,Read,ACK
1.482173000000000,81,0xD1,0xDF,Read,ACK
1.482213500000000,81,0xD1,0xFF,Read,ACK
1.482245000000000,81,0xD1,0xF3,Read,ACK
1.482276500000000,81,0xD1,0xFF,Read,ACK
1.482308000000000,81,0xD1,0xF9,Read,NAK
1.482473500000000,82,0xD0,0x3B,Write,ACK
1.482582500000000,83,0xD1,0xC2,Read,ACK
1.482623500000000,83,0xD1,0xD2,Read,ACK
1.482655000000000,83,0xD1,0x01,Read,ACK
1.482686500000000,83,0xD1,0xE4,Read,ACK
1.482718000000000,83,0xD1,0x02,Read,ACK
1.482749500000000,83,0xD1,0x24,Read,ACK
1.482781000000000,83,0xD1,0xF0,Read,ACK
1.482811500000000,83,0xD1,0xFB,Read,ACK
1.482843000000000,83,0xD1,0xFF,Read,ACK
1.482874500000000,83,0xD1,0xDF,Read,ACK
1.482905500000000,83,0xD1,0xFF,Read,ACK
1.482937000000000,83,0xD1,0xF3,Read,ACK
1.482968500000000,83,0xD1,0xFF,Read,ACK
1.483000000000000,83,0xD1,0xF9,Read,NAK
1.483165000000000,84,0xD0,0x3B,Write,ACK
1.483283500000000,85,0xD1,0xC2,Read,ACK
1.483315000000000,85,0xD1,0xD2,Read,ACK
1.483346000000000,85,0xD1,0x01,Read,ACK
1.483377500000000,85,0xD1,0xE4,Read,ACK
1.483409000000000,85,0xD1,0x02,Read,ACK
1.483440500000000,85,0xD1,0x24,Read,ACK
1.483472000000000,85,0xD1,0xF0,Read,ACK
1.483503500000000,85,0xD1,0xFB,Read,ACK
1.483535000000000,85,0xD1,0xFF,Read,ACK
1.483566500000000,85,0xD1,0xDF,Read,ACK
1.483597500000000,85,0xD1,0xFF,Read,ACK
1.483631500000000,85,0xD1,0xF3,Read,ACK
1.483662000000000,85,0xD1,0xFF,Read,ACK
1.483693000000000,85,0xD1,0xF9,Read,NAK
1.483863500000000,86,0xD0,0x3B,Write,ACK
1.483972500000000,87,0xD1,0xC2,Read,ACK
1.484004000000000,87,0xD1,0xD2,Read,ACK
1.484035500000000,87,0xD1,0x01,Read,ACK
1.484067000000000,87,0xD1,0xE4,Read,ACK
1.484098500000000,87,0xD1,0x02,Read,ACK
1.484130000000000,87,0xD1,0x24,Read,ACK
1.484161500000000,87,0xD1,0xF0,Read,ACK
1.484192500000000,87,0xD1,0xFB,Read,ACK
1.484224000000000,87,0xD1,0xFF,Read,ACK
1.484255500000000,87,0xD1,0xDF,Read,ACK
1.484285500000000,87,0xD1,0xFF,Read,ACK
1.484317000000000,87,0xD1,0xF3,Read,ACK
1.484348500000000,87,0xD1,0xFF,Read,ACK
1.484380000000000,87,0xD1,0xF9,Read,NAK
1.484546000000000,88,0xD0,0x3B,Write,ACK
1.484655000000000,89,0xD1,0xC2,Read,ACK
1.484694000000000,89,0xD1,0xD2,Read,ACK
1.484725500000000,89,0xD1,0x01,Read,ACK
1.484756500000000,89,0xD1,0xE4,Read,ACK
1.484797000000000,89,0xD1,0x02,Read,ACK
1.484828500000000,89,0xD1,0x24,Read,ACK
1.484859000000000,89,0xD1,0xF0,Read,ACK
1.484890500000000,89,0xD1,0xFB,Read,ACK
1.484922000000000,89,0xD1,0xFF,Read,ACK
1.484953500000000,89,0xD1,0xDF,Read,ACK
1.484985000000000,89,0xD1,0xFF,Read,ACK
1.485016000000000,89,0xD1,0xF3,Read,ACK
1.485047500000000,89,0xD1,0xFF,Read,ACK
1.485079000000000,89,0xD1,0xF9,Read,NAK
1.485244500000000,90,0xD0,0x3B,Write,ACK
1.485363000000000,91,0xD1,0xC2,Read,ACK
1.485394500000000,91,0xD1,0xA6,Read,ACK
1.485426000000000,91,0xD1,0x01,Read,ACK
1.485457500000000,91,0xD1,0xEC,Read,ACK
1.485488500000000,91,0xD1,0x01,Read,ACK
1.485520000000000,91,0xD1,0xFC,Read,ACK
1.485551500000000,91,0xD1,0xF0,Read,ACK
1.485583000000000,91,0xD1,0xF4,Read,ACK
1.485614500000000,91,0xD1,0xFF,Read,ACK
1.485646000000000,91,0xD1,0xDF,Read,ACK
1.485677500000000,91,0xD1,0xFF,Read,ACK
1.485725000000000,91,0xD1,0xF3,Read,ACK
1.485756500000000,91,0xD1,0xFF,Read,ACK
1.485787500000000,91,0xD1,0xF9,Read,NAK
1.485959000000000,92,0xD0,0x3B,Write,ACK
1.486068000000000,93,0xD1,0xC2,Read,ACK
1.486099500000000,93,0xD1,0xA6,Read,ACK
1.486131000000000,93,0xD1,0x01,Read,ACK
1.486162500000000,93,0xD1,0xEC,Read,ACK
1.486194000000000,93,0xD1,0x01,Read,ACK
1.486225500000000,93,0xD1,0xFC,Read,ACK
1.486257000000000,93,0xD1,0xF0,Read,ACK
1.486288000000000,93,0xD1,0xF4,Read,ACK
1.486319500000000,93,0xD1,0xFF,Read,ACK
1.486354000000000,93,0xD1,0xDF,Read,ACK
1.486385500000000,93,0xD1,0xFF,Read,ACK
1.486417000000000,93,0xD1,0xF3,Read,ACK
1.486448500000000,93,0xD1,0xFF,Read,ACK
1.486479500000000,93,0xD1,0xF9,Read,NAK
1.486645000000000,94,0xD0,0x3B,Write,ACK
1.486763500000000,95,0xD1,0xC2,Read,ACK
1.486795000000000,95,0xD1,0xA6,Read,ACK
1.486826500000000,95,0xD1,0x01,Read,ACK
1.486858000000000,95,0xD1,0xEC,Read,ACK
1.486895000000000,95,0xD1,0x01,Read,ACK
1.486926500000000,95,0xD1,0xFC,Read,ACK
1.486958000000000,95,0xD1,0xF0,Read,ACK
1.486989500000000,95,0xD1,0xF4,Read,ACK
1.487020500000000,95,0xD1,0xFF,Read,ACK
1.487052000000000,95,0xD1,0xDF,Read,ACK
1.487083500000000,95,0xD1,0xFF,Read,ACK
1.487115000000000,95,0xD1,0xF3,Read,ACK
1.487146500000000,95,0xD1,0xFF,Read,ACK
1.487178000000000,95,0xD1,0xF9,Read,NAK
1.487344000000000,96,0xD0,0x3B,Write,ACK
1.487462000000000,97,0xD1,0xC2,Read,ACK
1.487493500000000,97,0xD1,0xA6,Read,ACK
1.487525000000000,97,0xD1,0x01,Read,ACK
1.487556500000000,97,0xD1,0xEC,Read,ACK
1.487588000000000,97,0xD1,0x01,Read,ACK
1.487619500000000,97,0xD1,0xFC,Read,ACK
1.487650500000000,97,0xD1,0xF0,Read,ACK
1.487682000000000,97,0xD1,0xF4,Read,ACK
1.487713500000000,97,0xD1,0xFF,Read,ACK
1.487745000000000,97,0xD1,0xDF,Read,ACK
1.487774500000000,97,0xD1,0xFF,Read,ACK
1.487805000000000,97,0xD1,0xF3,Read,ACK
1.487836500000000,97,0xD1,0xFF,Read,ACK
1.487867500000000,97,0xD1,0xF9,Read,NAK
1.488039000000000,98,0xD0,0x3B,Write,ACK
1.488147500000000,99,0xD1,0xC2,Read,ACK
1.488179000000000,99,0xD1,0xA6,Read,ACK
1.488210500000000,99,0xD1,0x01,Read,ACK
1.488242000000000,99,0xD1,0xEC,Read,ACK
1.488273500000000,99,0xD1,0x01,Read,ACK
1.488305000000000,99,0xD1,0xFC,Read,ACK
1.488336500000000,99,0xD1,0xF0,Read,ACK
1.488368000000000,99,0xD1,0xF4,Read,ACK
1.488399500000000,99,0xD1,0xFF,Read,ACK
1.488429500000000,99,0xD1,0xDF,Read,ACK
1.488461000000000,99,0xD1,0xFF,Read,ACK
1.488492000000000,99,0xD1,0xF3,Read,ACK
1.488523500000000,99,0xD1,0xFF,Read,ACK
1.488555000000000,99,0xD1,0xF9,Read,NAK
1.488721000000000,100,0xD0,0x3B,Write,ACK
1.488833500000000,101,0xD1,0xC2,Read,ACK
1.488865000000000,101,0xD1,0xA6,Read,ACK
1.488896500000000,101,0xD1,0x01,Read,ACK
1.488928000000000,101,0xD1,0xEC,Read,ACK
1.488958500000000,101,0xD1,0x01,Read,ACK
1.488990000000000,101,0xD1,0xFC,Read,ACK
1.489021000000000,101,0xD1,0xF0,Read,ACK
1.489052500000000,101,0xD1,0xF4,Read,ACK
1.489084000000000,101,0xD1,0xFF,Read,ACK
1.489115500000000,101,0xD1,0xDF,Read,ACK
1.489147000000000,101,0xD1,0xFF,Read,ACK
1.489178500000000,101,0xD1,0xF3,Read,ACK
1.489210000000000,101,0xD1,0xFF,Read,ACK
1.489241500000000,101,0xD1,0xF9,Read,NAK
1.494245500000000,102,0xD0,0x3B,Write,ACK
1.494354500000000,103,0xD1,0xC2,Read,ACK
1.494386000000000,103,0xD1,0xBA,Read,ACK
1.494417500000000,103,0xD1,0x01,Read,ACK
1.494449000000000,103,0xD1,0xCE,Read,ACK
1.494480500000000,103,0xD1,0x02,Read,ACK
1.494511500000000,103,0xD1,0x3C,Read,ACK
1.494543000000000,103,0xD1,0xF0,Read,ACK
1.494574500000000,103,0xD1,0xF4,Read,ACK
1.494606000000000,103,0xD1,0xFF,Read,ACK
1.494636000000000,103,0xD1,0xDE,Read,ACK
1.494667500000000,103,0xD1,0xFF,Read,ACK
1.494699000000000,103,0xD1,0xF1,Read,ACK
1.494730500000000,103,0xD1,0xFF,Read,ACK
1.494762000000000,103,0xD1,0xF9,Read,NAK
1.494937500000000,104,0xD0,0x3B,Write,ACK
1.495045000000000,105,0xD1,0xC2,Read,ACK
1.495080000000000,105,0xD1,0xBE,Read,ACK
1.495111500000000,105,0xD1,0x01,Read,ACK
1.495142500000000,105,0xD1,0xE2,Read,ACK
1.495174000000000,105,0xD1,0x02,Read,ACK
1.495205500000000,105,0xD1,0x40,Read,ACK
1.495237000000000,105,0xD1,0xF0,Read,ACK
1.495268500000000,105,0xD1,0xF3,Read,ACK
1.495300000000000,105,0xD1,0xFF,Read,ACK
1.495331500000000,105,0xD1,0xDE,Read,ACK
1.495363000000000,105,0xD1,0xFF,Read,ACK
1.495394500000000,105,0xD1,0xF3,Read,ACK
1.495425500000000,105,0xD1,0xFF,Read,ACK
1.495457000000000,105,0xD1,0xF9,Read,NAK
1.495623500000000,106,0xD0,0x3B,Write,ACK
1.495742000000000,107,0xD1,0xC2,Read,ACK
1.495773500000000,107,0xD1,0xBE,Read,ACK
1.495804500000000,107,0xD1,0x01,Read,ACK
1.495836000000000,107,0xD1,0xE2,Read,ACK
1.495867500000000,107,0xD1,0x02,Read,ACK
1.495905500000000,107,0xD1,0x40,Read,ACK
1.495937000000000,107,0xD1,0xF0,Read,ACK
1.495968500000000,107,0xD1,0xF3,Read,ACK
1.496000000000000,107,0xD1,0xFF,Read,ACK
1.496031500000000,107,0xD1,0xDE,Read,ACK
1.496078500000000,107,0xD1,0xFF,Read,ACK
1.496109000000000,107,0xD1,0xF3,Read,ACK
1.496140500000000,107,0xD1,0xFF,Read,ACK
1.496172000000000,107,0xD1,0xF9,Read,NAK
1.496339500000000,108,0xD0,0x3B,Write,ACK
1.496448500000000,109,0xD1,0xC2,Read,ACK
1.496480000000000,109,0xD1,0xBE,Read,ACK
1.496511500000000,109,0xD1,0x01,Read,ACK
1.496543000000000,109,0xD1,0xE2,Read,ACK
1.496574000000000,109,0xD1,0x02,Read,ACK
1.496605500000000,109,0xD1,0x40,Read,ACK
1.496637000000000,109,0xD1,0xF0,Read,ACK
1.496668500000000,109,0xD1,0xF3,Read,ACK
1.496703000000000,109,0xD1,0xFF,Read,ACK
1.496734500000000,109,0xD1,0xDE,Read,ACK
1.496766000000000,109,0xD1,0xFF,Read,ACK
1.496797000000000,109,0xD1,0xF3,Read,ACK
1.496828500000000,109,0xD1,0xFF,Read,ACK
1.496860000000000,109,0xD1,0xF9,Read,NAK
1.497035000000000,110,0xD0,0x3B,Write,ACK
1.497165000000000,111,0xD1,0xC2,Read,ACK
1.497196500000000,111,0xD1,0xBE,Read,ACK
1.497228000000000,111,0xD1,0x01,Read,ACK
1.497259500000000,111,0xD1,0xE2,Read,ACK
1.497291000000000,111,0xD1,0x02,Read,ACK
1.497322000000000,111,0xD1,0x40,Read,ACK
1.497353500000000,111,0xD1,0xF0,Read,ACK
1.497385000000000,111,0xD1,0xF3,Read,ACK
1.497416500000000,111,0xD1,0xFF,Read,ACK
1.497448000000000,111,0xD1,0xDE,Read,ACK
1.497479500000000,111,0xD1,0xFF,Read,ACK
1.497511000000000,111,0xD1,0xF3,Read,ACK
1.497542500000000,111,0xD1,0xFF,Read,ACK
1.497573500000000,111,0xD1,0xF9,Read,NAK
1.497738500000000,112,0xD0,0x3B,Write,ACK
1.497847000000000,113,0xD1,0xC2,Read,ACK
1.497878500000000,113,0xD1,0xBE,Read,ACK
1.497910000000000,113,0xD1,0x01,Read,ACK
1.497950500000000,113,0xD1,0xE2,Read,ACK
1.497982000000000,113,0xD1,0x02,Read,ACK
1.498013500000000,113,0xD1,0x40,Read,ACK
1.498044500000000,113,0xD1,0xF0,Read,ACK
1.498076000000000,113,0xD1,0xF3,Read,ACK
1.498107500000000,113,0xD1,0xFF,Read,ACK
1.498154000000000,113,0xD1,0xDE,Read,ACK
1.498185500000000,113,0xD1,0xFF,Read,ACK
1.498217000000000,113,0xD1,0xF3,Read,ACK
1.498248000000000,113,0xD1,0xFF,Read,ACK
1.498279500000000,113,0xD1,0xF9,Read,NAK
1.498445000000000,114,0xD0,0x3B,Write,ACK
1.498554000000000,115,0xD1,0xC2,Read,ACK
1.498585500000000,115,0xD1,0xBE,Read,ACK
1.498617000000000,115,0xD1,0x01,Read,ACK
1.498648500000000,115,0xD1,0xE2,Read,ACK
1.498679500000000,115,0xD1,0x02,Read,ACK
1.498711000000000,115,0xD1,0x40,Read,ACK
1.498742500000000,115,0xD1,0xF0,Read,ACK
1.498775000000000,115,0xD1,0xF3,Read,ACK
1.498804500000000,115,0xD1,0xFF,Read,ACK
1.498836000000000,115,0xD1,0xDE,Read,ACK
1.498867500000000,115,0xD1,0xFF,Read,ACK
1.498899000000000,115,0xD1,0xF3,Read,ACK
1.498930000000000,115,0xD1,0xFF,Read,ACK
1.498961500000000,115,0xD1,0xF9,Read,NAK
1.499128000000000,116,0xD0,0x3B,Write,ACK
1.499258500000000,117,0xD1,0xC2,Read,ACK
1.499290000000000,117,0xD1,0xBE,Read,ACK
1.499321000000000,117,0xD1,0x01,Read,ACK
1.499352500000000,117,0xD1,0xE2,Read,ACK
1.499384000000000,117,0xD1,0x02,Read,ACK
1.499415500000000,117,0xD1,0x40,Read,ACK
1.499447000000000,117,0xD1,0xF0,Read,ACK
1.499478500000000,117,0xD1,0xF3,Read,ACK
1.499510000000000,117,0xD1,0xFF,Read,ACK
1.499541500000000,117,0xD1,0xDE,Read,ACK
1.499572500000000,117,0xD1,0xFF,Read,ACK
1.499604000000000,117,0xD1,0xF3,Read,ACK
1.499635500000000,117,0xD1,0xFF,Read,ACK
1.499667000000000,117,0xD1,0xF9,Read,NAK
1.499842500000000,118,0xD0,0x3B,Write,ACK
1.499951500000000,119,0xD1,0xC2,Read,ACK
1.499992000000000,119,0xD1,0xAA,Read,ACK
1.500023000000000,119,0xD1,0x01,Read,ACK
1.500054500000000,119,0xD1,0xAE,Read,ACK
1.500086000000000,119,0xD1,0x02,Read,ACK
1.500117500000000,119,0xD1,0x74,Read,ACK
1.500149000000000,119,0xD1,0xF0,Read,ACK
1.500186000000000,119,0xD1,0xFA,Read,ACK
1.500218500000000,119,0xD1,0xFF,Read,ACK
1.500249500000000,119,0xD1,0xE0,Read,ACK
1.500281000000000,119,0xD1,0xFF,Read,ACK
1.500312500000000,119,0xD1,0xF3,Read,ACK
1.500344000000000,119,0xD1,0xFF,Read,ACK
1.500375500000000,119,0xD1,0xF8,Read,NAK
1.500541000000000,120,0xD0,0x3B,Write,ACK
1.500650000000000,121,0xD1,0xC2,Read,ACK
1.500681500000000,121,0xD1,0xAA,Read,ACK
1.500713000000000,121,0xD1,0x01,Read,ACK
1.500744000000000,121,0xD1,0xAE,Read,ACK
1.500775500000000,121,0xD1,0x02,Read,ACK
1.500807000000000,121,0xD1,0x74,Read,ACK
1.500843500000000,121,0xD1,0xF0,Read,ACK
1.500875000000000,121,0xD1,0xFA,Read,ACK
1.500906500000000,121,0xD1,0xFF,Read,ACK
1.500938000000000,121,0xD1,0xE0,Read,ACK
1.500969500000000,121,0xD1,0xFF,Read,ACK
1.501001000000000,121,0xD1,0xF3,Read,ACK
1.501030500000000,121,0xD1,0xFF,Read,ACK
1.501062000000000,121,0xD1,0xF8,Read,NAK
1.501227000000000,122,0xD0,0x3B,Write,ACK
1.501334500000000,123,0xD1,0xC2,Read,ACK
1.501366000000000,123,0xD1,0xAA,Read,ACK
1.501397500000000,123,0xD1,0x01,Read,ACK
1.501429000000000,123,0xD1,0xAE,Read,ACK
1.501460500000000,123,0xD1,0x02,Read,ACK
1.501492000000000,123,0xD1,0x74,Read,ACK
1.501523500000000,123,0xD1,0xF0,Read,ACK
1.501555000000000,123,0xD1,0xFA,Read,ACK
1.501586000000000,123,0xD1,0xFF,Read,ACK
1.501617500000000,123,0xD1,0xE0,Read,ACK
1.501649000000000,123,0xD1,0xFF,Read,ACK
1.501680500000000,123,0xD1,0xF3,Read,ACK
1.501712000000000,123,0xD1,0xFF,Read,ACK
1.501743500000000,123,0xD1,0xF8,Read,NAK
1.501918000000000,124,0xD0,0x3B,Write,ACK
1.502029500000000,125,0xD1,0xC2,Read,ACK
1.502061000000000,125,0xD1,0xAA,Read,ACK
1.502092500000000,125,0xD1,0x01,Read,ACK
1.502124000000000,125,0xD1,0xAE,Read,ACK
1.502155500000000,125,0xD1,0x02,Read,ACK
1.502186500000000,125,0xD1,0x74,Read,ACK
1.502218000000000,125,0xD1,0xF0,Read,ACK
1.502248500000000,125,0xD1,0xFA,Read,ACK
1.502289500000000,125,0xD1,0xFF,Read,ACK
1.502321000000000,125,0xD1,0xE0,Read,ACK
1.502352500000000,125,0xD1,0xFF,Read,ACK
1.502384000000000,125,0xD1,0xF3,Read,ACK
1.502415500000000,125,0xD1,0xFF,Read,ACK
1.502446500000000,125,0xD1,0xF8,Read,NAK
1.502612000000000,126,0xD0,0x3B,Write,ACK
1.502721000000000,127,0xD1,0xC2,Read,ACK
1.502752500000000,127,0xD1,0xAA,Read,ACK
1.502784000000000,127,0xD1,0x01,Read,ACK
1.502815500000000,127,0xD1,0xAE,Read,ACK
1.502847000000000,127,0xD1,0x02,Read,ACK
1.502878500000000,127,0xD1,0x74,Read,ACK
1.502915000000000,127,0xD1,0xF0,Read,ACK
1.502946500000000,127,0xD1,0xFA,Read,ACK
1.502977500000000,127,0xD1,0xFF,Read,ACK
1.503009000000000,127,0xD1,0xE0,Read,ACK
1.503040500000000,127,0xD1,0xFF,Read,ACK
1.503070000000000,127,0xD1,0xF3,Read,ACK
1.503101500000000,127,0xD1,0xFF,Read,ACK
1.503133000000000,127,0xD1,0xF8,Read,NAK
1.503320000000000,128,0xD0,0x3B,Write,ACK
1.503429000000000,129,0xD1,0xC2,Read,ACK
1.503460500000000,129,0xD1,0xAA,Read,ACK
1.503492000000000,129,0xD1,0x01,Read,ACK
1.503523500000000,129,0xD1,0xAE,Read,ACK
1.503555000000000,129,0xD1,0x02,Read,ACK
1.503586500000000,129,0xD1,0x74,Read,ACK
1.503618000000000,129,0xD1,0xF0,Read,ACK
1.503649500000000,129,0xD1,0xFA,Read,ACK
1.503680500000000,129,0xD1,0xFF,Read,ACK
1.503712000000000,129,0xD1,0xE0,Read,ACK
1.503743500000000,129,0xD1,0xFF,Read,ACK
1.503775000000000,129,0xD1,0xF3,Read,ACK
1.503806500000000,129,0xD1,0xFF,Read,ACK
1.503838000000000,129,0xD1,0xF8,Read,NAK
1.504022500000000,130,0xD0,0x3B,Write,ACK
1.504131500000000,131,0xD1,0xC2,Read,ACK
1.504163000000000,131,0xD1,0xAA,Read,ACK
1.504194500000000,131,0xD1,0x01,Read,ACK
1.504226000000000,131,0xD1,0xAE,Read,ACK
1.504257500000000,131,0xD1,0x02,Read,ACK
1.504288000000000,131,0xD1,0x74,Read,ACK
1.504319500000000,131,0xD1,0xF0,Read,ACK
1.504360000000000,131,0xD1,0xFA,Read,ACK
1.504391500000000,131,0xD1,0xFF,Read,ACK
1.504423000000000,131,0xD1,0xE0,Read,ACK
1.504454500000000,131,0xD1,0xFF,Read,ACK
1.504486000000000,131,0xD1,0xF3,Read,ACK
1.504517500000000,131,0xD1,0xFF,Read,ACK
1.504549000000000,131,0xD1,0xF8,Read,NAK
1.504714500000000,132,0xD0,0x3B,Write,ACK
1.504823000000000,133,0xD1,0xC2,Read,ACK
1.504854500000000,133,0xD1,0xAA,Read,ACK
1.504886000000000,133,0xD1,0x01,Read,ACK
1.504917500000000,133,0xD1,0xAE,Read,ACK
1.504949000000000,133,0xD1,0x02,Read,ACK
1.504985500000000,133,0xD1,0x74,Read,ACK
1.505017000000000,133,0xD1,0xF0,Read,ACK
1.505048500000000,133,0xD1,0xFA,Read,ACK
1.505080000000000,133,0xD1,0xFF,Read,ACK
1.505109500000000,133,0xD1,0xE0,Read,ACK
1.505141000000000,133,0xD1,0xFF,Read,ACK
1.505172500000000,133,0xD1,0xF3,Read,ACK
1.505203500000000,133,0xD1,0xFF,Read,ACK
1.505235000000000,133,0xD1,0xF8,Read,NAK
1.510256000000000,134,0xD0,0x3B,Write,ACK
1.510365000000000,135,0xD1,0xC2,Read,ACK
1.510396500000000,135,0xD1,0x74,Read,ACK
1.510427000000000,135,0xD1,0x02,Read,ACK
1.510458500000000,135,0xD1,0x08,Read,ACK
1.510490000000000,135,0xD1,0x02,Read,ACK
1.510521500000000,135,0xD1,0x2A,Read,ACK
1.510568500000000,135,0xD1,0xF0,Read,ACK
1.510600000000000,135,0xD1,0xF3,Read,ACK
1.510631500000000,135,0xD1,0xFF,Read,ACK
1.510663000000000,135,0xD1,0xE0,Read,ACK
1.510694500000000,135,0xD1,0xFF,Read,ACK
1.510726000000000,135,0xD1,0xF4,Read,ACK
1.510757500000000,135,0xD1,0xFF,Read,ACK
1.510788500000000,135,0xD1,0xF8,Read,NAK
1.510955000000000,136,0xD0,0x3B,Write,ACK
1.511064000000000,137,0xD1,0xC2,Read,ACK
1.511095500000000,137,0xD1,0x74,Read,ACK
1.511127000000000,137,0xD1,0x02,Read,ACK
1.511158500000000,137,0xD1,0x08,Read,ACK
1.511195000000000,137,0xD1,0x02,Read,ACK
1.511226500000000,137,0xD1,0x2A,Read,ACK
1.511266500000000,137,0xD1,0xF0,Read,ACK
1.511298000000000,137,0xD1,0xF3,Read,ACK
1.511329500000000,137,0xD1,0xFF,Read,ACK
1.511361000000000,137,0xD1,0xE0,Read,ACK
1.511392500000000,137,0xD1,0xFF,Read,ACK
1.511424000000000,137,0xD1,0xF4,Read,ACK
1.511454500000000,137,0xD1,0xFF,Read,ACK
1.511485500000000,137,0xD1,0xF8,Read,NAK
1.511668000000000,138,0xD0,0x3B,Write,ACK
1.511777000000000,139,0xD1,0xC2,Read,ACK
1.511808500000000,139,0xD1,0x74,Read,ACK
1.511840000000000,139,0xD1,0x02,Read,ACK
1.511871500000000,139,0xD1,0x08,Read,ACK
1.511903000000000,139,0xD1,0x02,Read,ACK
1.511934500000000,139,0xD1,0x2A,Read,ACK
1.511966000000000,139,0xD1,0xF0,Read,ACK
1.511997000000000,139,0xD1,0xF3,Read,ACK
1.512028500000000,139,0xD1,0xFF,Read,ACK
1.512060000000000,139,0xD1,0xE0,Read,ACK
1.512091500000000,139,0xD1,0xFF,Read,ACK
1.512123000000000,139,0xD1,0xF4,Read,ACK
1.512154500000000,139,0xD1,0xFF,Read,ACK
1.512186000000000,139,0xD1,0xF8,Read,NAK
1.512370000000000,140,0xD0,0x3B,Write,ACK
1.512478500000000,141,0xD1,0xC2,Read,ACK
1.512509500000000,141,0xD1,0x74,Read,ACK
1.512541000000000,141,0xD1,0x02,Read,ACK
1.512572500000000,141,0xD1,0x08,Read,ACK
1.512604000000000,141,0xD1,0x02,Read,ACK
1.512640500000000,141,0xD1,0x2A,Read,ACK
1.512672000000000,141,0xD1,0xF0,Read,ACK
1.512703500000000,141,0xD1,0xF3,Read,ACK
1.512735000000000,141,0xD1,0xFF,Read,ACK
1.512766500000000,141,0xD1,0xE0,Read,ACK
1.512798000000000,141,0xD1,0xFF,Read,ACK
1.512829500000000,141,0xD1,0xF4,Read,ACK
1.512860500000000,141,0xD1,0xFF,Read,ACK
1.512892000000000,141,0xD1,0xF8,Read,NAK
1.513057500000000,142,0xD0,0x3B,Write,ACK
1.513166500000000,143,0xD1,0xC2,Read,ACK
1.513198000000000,143,0xD1,0x74,Read,ACK
1.513236000000000,143,0xD1,0x02,Read,ACK
1.513266000000000,143,0xD1,0x08,Read,ACK
1.513297500000000,143,0xD1,0x02,Read,ACK
1.513329000000000,143,0xD1,0x2A,Read,ACK
1.513360500000000,143,0xD1,0xF0,Read,ACK
1.513392000000000,143,0xD1,0xF3,Read,ACK
1.513423500000000,143,0xD1,0xFF,Read,ACK
1.513455000000000,143,0xD1,0xE0,Read,ACK
1.513489500000000,143,0xD1,0xFF,Read,ACK
1.513521000000000,143,0xD1,0xF4,Read,ACK
1.513552500000000,143,0xD1,0xFF,Read,ACK
1.513584000000000,143,0xD1,0xF8,Read,NAK
1.513765000000000,144,0xD0,0x3B,Write,ACK
1.513874000000000,145,0xD1,0xC2,Read,ACK
1.513905500000000,145,0xD1,0x74,Read,ACK
1.513937000000000,145,0xD1,0x02,Read,ACK
1.513968500000000,145,0xD1,0x08,Read,ACK
1.514000000000000,145,0xD1,0x02,Read,ACK
1.514031000000000,145,0xD1,0x2A,Read,ACK
1.514062500000000,145,0xD1,0xF0,Read,ACK
1.514094000000000,145,0xD1,0xF3,Read,ACK
1.514125500000000,145,0xD1,0xFF,Read,ACK
1.514157000000000,145,0xD1,0xE0,Read,ACK
1.514188500000000,145,0xD1,0xFF,Read,ACK
1.514220000000000,145,0xD1,0xF4,Read,ACK
1.514251500000000,145,0xD1,0xFF,Read,ACK
1.514282500000000,145,0xD1,0xF8,Read,NAK
1.514449500000000,146,0xD0,0x3B,Write,ACK
1.514564000000000,147,0xD1,0xC2,Read,ACK
1.514595500000000,147,0xD1,0x74,Read,ACK
1.514627000000000,147,0xD1,0x02,Read,ACK
1.514658000000000,147,0xD1,0x08,Read,ACK
1.514705500000000,147,0xD1,0x02,Read,ACK
1.514737000000000,147,0xD1,0x2A,Read,ACK
1.514768500000000,147,0xD1,0xF0,Read,ACK
1.514799500000000,147,0xD1,0xF3,Read,ACK
1.514831000000000,147,0xD1,0xFF,Read,ACK
1.514862500000000,147,0xD1,0xE0,Read,ACK
1.514894000000000,147,0xD1,0xFF,Read,ACK
1.514925500000000,147,0xD1,0xF4,Read,ACK
1.514957000000000,147,0xD1,0xFF,Read,ACK
1.514988500000000,147,0xD1,0xF8,Read,NAK
1.515154000000000,148,0xD0,0x3B,Write,ACK
1.515263000000000,149,0xD1,0xC2,Read,ACK
1.515294500000000,149,0xD1,0xC8,Read,ACK
1.515344000000000,149,0xD1,0x01,Read,ACK
1.515375500000000,149,0xD1,0xF2,Read,ACK
1.515407000000000,149,0xD1,0x02,Read,ACK
1.515438500000000,149,0xD1,0x64,Read,ACK
1.515470000000000,149,0xD1,0xF0,Read,ACK
1.515501000000000,149,0xD1,0xF9,Read,ACK
1.515534000000000,149,0xD1,0xFF,Read,ACK
1.515565500000000,149,0xD1,0xE0,Read,ACK
1.515597000000000,149,0xD1,0xFF,Read,ACK
1.515628000000000,149,0xD1,0xF2,Read,ACK
1.515659500000000,149,0xD1,0xFF,Read,ACK
1.515691000000000,149,0xD1,0xF8,Read,NAK
1.515867500000000,150,0xD0,0x3B,Write,ACK
1.515976500000000,151,0xD1,0xC2,Read,ACK
1.516008000000000,151,0xD1,0xC8,Read,ACK
1.516039500000000,151,0xD1,0x01,Read,ACK
1.516071000000000,151,0xD1,0xF2,Read,ACK
1.516102500000000,151,0xD1,0x02,Read,ACK
1.516134000000000,151,0xD1,0x64,Read,ACK
1.516165000000000,151,0xD1,0xF0,Read,ACK
1.516196500000000,151,0xD1,0xF9,Read,ACK
1.516228000000000,151,0xD1,0xFF,Read,ACK
1.516257500000000,151,0xD1,0xE0,Read,ACK
1.516289000000000,151,0xD1,0xFF,Read,ACK
1.516320500000000,151,0xD1,0xF2,Read,ACK
1.516352000000000,151,0xD1,0xFF,Read,ACK
1.516382000000000,151,0xD1,0xF8,Read,NAK
1.516553500000000,152,0xD0,0x3B,Write,ACK
1.516662500000000,153,0xD1,0xC2,Read,ACK
1.516694000000000,153,0xD1,0xC8,Read,ACK
1.516725500000000,153,0xD1,0x01,Read,ACK
1.516772500000000,153,0xD1,0xF2,Read,ACK
1.516804000000000,153,0xD1,0x02,Read,ACK
1.516835500000000,153,0xD1,0x64,Read,ACK
1.516867000000000,153,0xD1,0xF0,Read,ACK
1.516898500000000,153,0xD1,0xF9,Read,ACK
1.516929500000000,153,0xD1,0xFF,Read,ACK
1.516961000000000,153,0xD1,0xE0,Read,ACK
1.516992500000000,153,0xD1,0xFF,Read,ACK
1.517024000000000,153,0xD1,0xF2,Read,ACK
1.517055500000000,153,0xD1,0xFF,Read,ACK
1.517087000000000,153,0xD1,0xF8,Read,NAK
1.517253000000000,154,0xD0,0x3B,Write,ACK
1.517362000000000,155,0xD1,0xC2,Read,ACK
1.517411500000000,155,0xD1,0xC8,Read,ACK
1.517443000000000,155,0xD1,0x01,Read,ACK
1.517474500000000,155,0xD1,0xF2,Read,ACK
1.517506000000000,155,0xD1,0x02,Read,ACK
1.517537500000000,155,0xD1,0x64,Read,ACK
1.517574000000000,155,0xD1,0xF0,Read,ACK
1.517605500000000,155,0xD1,0xF9,Read,ACK
1.517637000000000,155,0xD1,0xFF,Read,ACK
1.517668500000000,155,0xD1,0xE0,Read,ACK
1.517700000000000,155,0xD1,0xFF,Read,ACK
1.517731500000000,155,0xD1,0xF2,Read,ACK
1.517763000000000,155,0xD1,0xFF,Read,ACK
1.517810000000000,155,0xD1,0xF8,Read,NAK
1.517975000000000,156,0xD0,0x3B,Write,ACK
1.518084000000000,157,0xD1,0xC2,Read,ACK
1.518115500000000,157,0xD1,0xC8,Read,ACK
1.518147000000000,157,0xD1,0x01,Read,ACK
1.518178000000000,157,0xD1,0xF2,Read,ACK
1.518209500000000,157,0xD1,0x02,Read,ACK
1.518241000000000,157,0xD1,0x64,Read,ACK
1.518272500000000,157,0xD1,0xF0,Read,ACK
1.518304000000000,157,0xD1,0xF9,Read,ACK
1.518335500000000,157,0xD1,0xFF,Read,ACK
1.518367000000000,157,0xD1,0xE0,Read,ACK
1.518405000000000,157,0xD1,0xFF,Read,ACK
1.518439500000000,157,0xD1,0xF2,Read,ACK
1.518471000000000,157,0xD1,0xFF,Read,ACK
1.518502000000000,157,0xD1,0xF8,Read,NAK
1.518674000000000,158,0xD0,0x3B,Write,ACK
1.518783000000000,159,0xD1,0xC2,Read,ACK
1.518814500000000,159,0xD1,0xC8,Read,ACK
1.518851000000000,159,0xD1,0x01,Read,ACK
1.518882500000000,159,0xD1,0xF2,Read,ACK
1.518914000000000,159,0xD1,0x02,Read,ACK
1.518945000000000,159,0xD1,0x64,Read,ACK
1.518976500000000,159,0xD1,0xF0,Read,ACK
1.519008000000000,159,0xD1,0xF9,Read,ACK
1.519039500000000,159,0xD1,0xFF,Read,ACK
1.519071000000000,159,0xD1,0xE0,Read,ACK
1.519102500000000,159,0xD1,0xFF,Read,ACK
1.519134000000000,159,0xD1,0xF2,Read,ACK
1.519165500000000,159,0xD1,0xFF,Read,ACK
1.519196500000000,159,0xD1,0xF8,Read,NAK
1.519363000000000,160,0xD0,0x3B,Write,ACK
1.519479500000000,161,0xD1,0xC2,Read,ACK
1.519511000000000,161,0xD1,0xC8,Read,ACK
1.519542500000000,161,0xD1,0x01,Read,ACK
1.519574000000000,161,0xD1,0xF2,Read,ACK
1.519605500000000,161,0xD1,0x02,Read,ACK
1.519636000000000,161,0xD1,0x64,Read,ACK
1.519667500000000,161,0xD1,0xF0,Read,ACK
1.519699000000000,161,0xD1,0xF9,Read,ACK
1.519730500000000,161,0xD1,0xFF,Read,ACK
1.519761500000000,161,0xD1,0xE0,Read,ACK
1.519793000000000,161,0xD1,0xFF,Read,ACK
1.519824500000000,161,0xD1,0xF2,Read,ACK
1.519856000000000,161,0xD1,0xFF,Read,ACK
1.519886000000000,161,0xD1,0xF8,Read,NAK
1.520051500000000,162,0xD0,0x3B,Write,ACK
1.520160500000000,163,0xD1,0xC2,Read,ACK
1.520192000000000,163,0xD1,0xBA,Read,ACK
1.520223500000000,163,0xD1,0x02,Read,ACK
1.520255000000000,163,0xD1,0x04,Read,ACK
1.520286500000000,163,0xD1,0x02,Read,ACK
1.520317500000000,163,0xD1,0x84,Read,ACK
1.520349000000000,163,0xD1,0xF0,Read,ACK
1.520380500000000,163,0xD1,0xF7,Read,ACK
1.520412000000000,163,0xD1,0xFF,Read,ACK
1.520443500000000,163,0xD1,0xE0,Read,ACK
1.520475000000000,163,0xD1,0xFF,Read,ACK
1.520511500000000,163,0xD1,0xF3,Read,ACK
1.520543000000000,163,0xD1,0xFF,Read,ACK
1.520574000000000,163,0xD1,0xF8,Read,NAK
1.520744000000000,164,0xD0,0x3B,Write,ACK
1.520853000000000,165,0xD1,0xC2,Read,ACK
1.520884500000000,165,0xD1,0xBA,Read,ACK
1.520921000000000,165,0xD1,0x02,Read,ACK
1.520952500000000,165,0xD1,0x04,Read,ACK
1.520984000000000,165,0xD1,0x02,Read,ACK
1.521015500000000,165,0xD1,0x84,Read,ACK
1.521047000000000,165,0xD1,0xF0,Read,ACK
1.521078500000000,165,0xD1,0xF7,Read,ACK
1.521110000000000,165,0xD1,0xFF,Read,ACK
1.521141500000000,165,0xD1,0xE0,Read,ACK
1.521172500000000,165,0xD1,0xFF,Read,ACK
1.521204000000000,165,0xD1,0xF3,Read,ACK
1.521235500000000,165,0xD1,0xFF,Read,ACK
1.521267000000000,165,0xD1,0xF8,Read,NAK
1.526269500000000,166,0xD0,0x3B,Write,ACK
1.526378500000000,167,0xD1,0xC2,Read,ACK
1.526410000000000,167,0xD1,0xC0,Read,ACK
1.526441500000000,167,0xD1,0x02,Read,ACK
1.526473000000000,167,0xD1,0x10,Read,ACK
1.526504500000000,167,0xD1,0x02,Read,ACK
1.526535500000000,167,0xD1,0x92,Read,ACK
1.526567000000000,167,0xD1,0xF0,Read,ACK
1.526598500000000,167,0xD1,0xF4,Read,ACK
1.526630000000000,167,0xD1,0xFF,Read,ACK
1.526661500000000,167,0xD1,0xDE,Read,ACK
1.526693000000000,167,0xD1,0xFF,Read,ACK
1.526732000000000,167,0xD1,0xF3,Read,ACK
1.526763500000000,167,0xD1,0xFF,Read,ACK
1.526794000000000,167,0xD1,0xF8,Read,NAK
1.526960000000000,168,0xD0,0x3B,Write,ACK
1.527069000000000,169,0xD1,0xC2,Read,ACK
1.527100500000000,169,0xD1,0xC0,Read,ACK
1.527130500000000,169,0xD1,0x02,Read,ACK
1.527162000000000,169,0xD1,0x10,Read,ACK
1.527193500000000,169,0xD1,0x02,Read,ACK
1.527225000000000,169,0xD1,0x92,Read,ACK
1.527256500000000,169,0xD1,0xF0,Read,ACK
1.527288000000000,169,0xD1,0xF4,Read,ACK
1.527319500000000,169,0xD1,0xFF,Read,ACK
1.527351000000000,169,0xD1,0xDE,Read,ACK
1.527382000000000,169,0xD1,0xFF,Read,ACK
1.527413500000000,169,0xD1,0xF3,Read,ACK
1.527445000000000,169,0xD1,0xFF,Read,ACK
1.527476500000000,169,0xD1,0xF8,Read,NAK
1.527652000000000,170,0xD0,0x3B,Write,ACK
1.527759500000000,171,0xD1,0xC2,Read,ACK
1.527791000000000,171,0xD1,0xC0,Read,ACK
1.527821500000000,171,0xD1,0x02,Read,ACK
1.527853000000000,171,0xD1,0x10,Read,ACK
1.527884500000000,171,0xD1,0x02,Read,ACK
1.527916000000000,171,0xD1,0x92,Read,ACK
1.527947500000000,171,0xD1,0xF0,Read,ACK
1.527979000000000,171,0xD1,0xF4,Read,ACK
1.528010000000000,171,0xD1,0xFF,Read,ACK
1.528041500000000,171,0xD1,0xDE,Read,ACK
1.528073000000000,171,0xD1,0xFF,Read,ACK
1.528104500000000,171,0xD1,0xF3,Read,ACK
1.528136000000000,171,0xD1,0xFF,Read,ACK
1.528166000000000,171,0xD1,0xF8,Read,NAK
1.528332000000000,172,0xD0,0x3B,Write,ACK
1.528441000000000,173,0xD1,0xC2,Read,ACK
1.528472000000000,173,0xD1,0xC0,Read,ACK
1.528503500000000,173,0xD1,0x02,Read,ACK
1.528535000000000,173,0xD1,0x10,Read,ACK
1.528566500000000,173,0xD1,0x02,Read,ACK
1.528598000000000,173,0xD1,0x92,Read,ACK
1.528634000000000,173,0xD1,0xF0,Read,ACK
1.528665500000000,173,0xD1,0xF4,Read,ACK
1.528697000000000,173,0xD1,0xFF,Read,ACK
1.528728500000000,173,0xD1,0xDE,Read,ACK
1.528760000000000,173,0xD1,0xFF,Read,ACK
1.528792000000000,173,0xD1,0xF3,Read,ACK
1.528829000000000,173,0xD1,0xFF,Read,ACK
1.528860500000000,173,0xD1,0xF8,Read,NAK
1.529026000000000,174,0xD0,0x3B,Write,ACK
1.529135000000000,175,0xD1,0xC2,Read,ACK
1.529166500000000,175,0xD1,0xC0,Read,ACK
1.529201000000000,175,0xD1,0x02,Read,ACK
1.529232500000000,175,0xD1,0x10,Read,ACK
1.529264000000000,175,0xD1,0x02,Read,ACK
1.529295500000000,175,0xD1,0x92,Read,ACK
1.529327000000000,175,0xD1,0xF0,Read,ACK
1.529358000000000,175,0xD1,0xF4,Read,ACK
1.529389500000000,175,0xD1,0xFF,Read,ACK
1.529421000000000,175,0xD1,0xDE,Read,ACK
1.529452500000000,175,0xD1,0xFF,Read,ACK
1.529484000000000,175,0xD1,0xF3,Read,ACK
1.529515500000000,175,0xD1,0xFF,Read,ACK
1.529547000000000,175,0xD1,0xF8,Read,NAK
1.529722500000000,176,0xD0,0x3B,Write,ACK
1.529830000000000,177,0xD1,0xC2,Read,ACK
1.529860500000000,177,0xD1,0xC0,Read,ACK
1.529892000000000,177,0xD1,0x02,Read,ACK
1.529923500000000,177,0xD1,0x10,Read,ACK
1.529955000000000,177,0xD1,0x02,Read,ACK
1.529986000000000,177,0xD1,0x92,Read,ACK
1.530017500000000,177,0xD1,0xF0,Read,ACK
1.530049000000000,177,0xD1,0xF4,Read,ACK
1.530080500000000,177,0xD1,0xFF,Read,ACK
1.530112000000000,177,0xD1,0xDE,Read,ACK
1.530143500000000,177,0xD1,0xFF,Read,ACK
1.530175000000000,177,0xD1,0xF3,Read,ACK
1.530206500000000,177,0xD1,0xFF,Read,ACK
1.530236500000000,177,0xD1,0xF8,Read,NAK
1.530402000000000,178,0xD0,0x3B,Write,ACK
1.530511000000000,179,0xD1,0xC2,Read,ACK
1.530542500000000,179,0xD1,0xF0,Read,ACK
1.530574000000000,179,0xD1,0x01,Read,ACK
1.530605500000000,179,0xD1,0xFE,Read,ACK
1.530637000000000,179,0xD1,0x02,Read,ACK
1.530677000000000,179,0xD1,0x6C,Read,ACK
1.530708500000000,179,0xD1,0xF0,Read,ACK
1.530740000000000,179,0xD1,0xEE,Read,ACK
1.530771500000000,179,0xD1,0xFF,Read,ACK
1.530803000000000,179,0xD1,0xDF,Read,ACK
1.530834500000000,179,0xD1,0xFF,Read,ACK
1.530870000000000,179,0xD1,0xF3,Read,ACK
1.530901500000000,179,0xD1,0xFF,Read,ACK
1.530933000000000,179,0xD1,0xF8,Read,NAK
1.531099000000000,180,0xD0,0x3B,Write,ACK
1.531208000000000,181,0xD1,0xC2,Read,ACK
1.531239500000000,181,0xD1,0xF0,Read,ACK
1.531271500000000,181,0xD1,0x01,Read,ACK
1.531303000000000,181,0xD1,0xFE,Read,ACK
1.531334500000000,181,0xD1,0x02,Read,ACK
1.531366000000000,181,0xD1,0x6C,Read,ACK
1.531397500000000,181,0xD1,0xF0,Read,ACK
1.531429000000000,181,0xD1,0xEE,Read,ACK
1.531460500000000,181,0xD1,0xFF,Read,ACK
1.531492000000000,181,0xD1,0xDF,Read,ACK
1.531521500000000,181,0xD1,0xFF,Read,ACK
1.531553000000000,181,0xD1,0xF3,Read,ACK
1.531584500000000,181,0xD1,0xFF,Read,ACK
1.531615500000000,181,0xD1,0xF8,Read,NAK
1.531781000000000,182,0xD0,0x3B,Write,ACK
1.531902500000000,183,0xD1,0xC2,Read,ACK
1.531934000000000,183,0xD1,0xF0,Read,ACK
1.531965500000000,183,0xD1,0x01,Read,ACK
1.531997000000000,183,0xD1,0xFE,Read,ACK
1.532028500000000,183,0xD1,0x02,Read,ACK
1.532060000000000,183,0xD1,0x6C,Read,ACK
1.532091000000000,183,0xD1,0xF0,Read,ACK
1.532122500000000,183,0xD1,0xEE,Read,ACK
1.532154000000000,183,0xD1,0xFF,Read,ACK
1.532185500000000,183,0xD1,0xDF,Read,ACK
1.532217000000000,183,0xD1,0xFF,Read,ACK
1.532248500000000,183,0xD1,0xF3,Read,ACK
1.532280000000000,183,0xD1,0xFF,Read,ACK
1.532310000000000,183,0xD1,0xF8,Read,NAK
1.532476000000000,184,0xD0,0x3B,Write,ACK
1.532585000000000,185,0xD1,0xC2,Read,ACK
1.532616500000000,185,0xD1,0xF0,Read,ACK
1.532648000000000,185,0xD1,0x01,Read,ACK
1.532679500000000,185,0xD1,0xFE,Read,ACK
1.532719500000000,185,0xD1,0x02,Read,ACK
1.532751000000000,185,0xD1,0x6C,Read,ACK
1.532782500000000,185,0xD1,0xF0,Read,ACK
1.532814000000000,185,0xD1,0xEE,Read,ACK
1.532845500000000,185,0xD1,0xFF,Read,ACK
1.532876500000000,185,0xD1,0xDF,Read,ACK
1.532908000000000,185,0xD1,0xFF,Read,ACK
1.532939500000000,185,0xD1,0xF3,Read,ACK
1.532971000000000,185,0xD1,0xFF,Read,ACK
1.533002500000000,185,0xD1,0xF8,Read,NAK
1.533168000000000,186,0xD0,0x3B,Write,ACK
1.533277000000000,187,0xD1,0xC2,Read,ACK
1.533308500000000,187,0xD1,0xF0,Read,ACK
1.533341000000000,187,0xD1,0x01,Read,ACK
1.533372000000000,187,0xD1,0xFE,Read,ACK
1.533403500000000,187,0xD1,0x02,Read,ACK
1.533435000000000,187,0xD1,0x6C,Read,ACK
1.533466500000000,187,0xD1,0xF0,Read,ACK
1.533498000000000,187,0xD1,0xEE,Read,ACK
1.533529500000000,187,0xD1,0xFF,Read,ACK
1.533561000000000,187,0xD1,0xDF,Read,ACK
1.533592500000000,187,0xD1,0xFF,Read,ACK
1.533624000000000,187,0xD1,0xF3,Read,ACK
1.533655000000000,187,0xD1,0xFF,Read,ACK
1.533686500000000,187,0xD1,0xF8,Read,NAK
1.533862000000000,188,0xD0,0x3B,Write,ACK
1.533971000000000,189,0xD1,0xC2,Read,ACK
1.534002000000000,189,0xD1,0xF0,Read,ACK
1.534033500000000,189,0xD1,0x01,Read,ACK
1.534065000000000,189,0xD1,0xFE,Read,ACK
1.534096500000000,189,0xD1,0x02,Read,ACK
1.534128000000000,189,0xD1,0x6C,Read,ACK
1.534159500000000,189,0xD1,0xF0,Read,ACK
1.534191000000000,189,0xD1,0xEE,Read,ACK
1.534222500000000,189,0xD1,0xFF,Read,ACK
1.534253500000000,189,0xD1,0xDF,Read,ACK
1.534285000000000,189,0xD1,0xFF,Read,ACK
1.534316500000000,189,0xD1,0xF3,Read,ACK
1.534348000000000,189,0xD1,0xFF,Read,ACK
1.534378000000000,189,0xD1,0xF8,Read,NAK
1.534543500000000,190,0xD0,0x3B,Write,ACK
1.534652500000000,191,0xD1,0xC2,Read,ACK
1.534684000000000,191,0xD1,0xF0,Read,ACK
1.534713500000000,191,0xD1,0x01,Read,ACK
1.534745000000000,191,0xD1,0xFE,Read,ACK
1.534776500000000,191,0xD1,0x02,Read,ACK
1.534808000000000,191,0xD1,0x6C,Read,ACK
1.534839500000000,191,0xD1,0xF0,Read,ACK
1.534871000000000,191,0xD1,0xEE,Read,ACK
1.534902500000000,191,0xD1,0xFF,Read,ACK
1.534934000000000,191,0xD1,0xDF,Read,ACK
1.534966500000000,191,0xD1,0xFF,Read,ACK
1.535003000000000,191,0xD1,0xF3,Read,ACK
1.535034500000000,191,0xD1,0xFF,Read,ACK
1.535066000000000,191,0xD1,0xF8,Read,NAK
1.535232000000000,192,0xD0,0x3B,Write,ACK
1.535341000000000,193,0xD1,0xC2,Read,ACK
1.535372500000000,193,0xD1,0x94,Read,ACK
1.535411000000000,193,0xD1,0x01,Read,ACK
1.535442500000000,193,0xD1,0xCE,Read,ACK
1.535474000000000,193,0xD1,0x02,Read,ACK
1.535505500000000,193,0xD1,0x30,Read,ACK
1.535537000000000,193,0xD1,0xF0,Read,ACK
1.535568500000000,193,0xD1,0xED,Read,ACK
1.535600000000000,193,0xD1,0xFF,Read,ACK
1.535631500000000,193,0xD1,0xE0,Read,ACK
1.535662500000000,193,0xD1,0xFF,Read,ACK
1.535694000000000,193,0xD1,0xF4,Read,ACK
1.535725500000000,193,0xD1,0xFF,Read,ACK
1.535757000000000,193,0xD1,0xF8,Read,NAK
1.535927000000000,194,0xD0,0x3B,Write,ACK
1.536040000000000,195,0xD1,0xC2,Read,ACK
1.536071500000000,195,0xD1,0x94,Read,ACK
1.536103000000000,195,0xD1,0x01,Read,ACK
1.536134500000000,195,0xD1,0xCE,Read,ACK
1.536166000000000,195,0xD1,0x02,Read,ACK
1.536197500000000,195,0xD1,0x30,Read,ACK
1.536229000000000,195,0xD1,0xF0,Read,ACK
1.536260500000000,195,0xD1,0xED,Read,ACK
1.536291500000000,195,0xD1,0xFF,Read,ACK
1.536323000000000,195,0xD1,0xE0,Read,ACK
1.536354500000000,195,0xD1,0xFF,Read,ACK
1.536386000000000,195,0xD1,0xF4,Read,ACK
1.536417500000000,195,0xD1,0xFF,Read,ACK
1.536447500000000,195,0xD1,0xF8,Read,NAK
1.536613000000000,196,0xD0,0x3B,Write,ACK
1.536722000000000,197,0xD1,0xC2,Read,ACK
1.536753500000000,197,0xD1,0x94,Read,ACK
1.536785000000000,197,0xD1,0x01,Read,ACK
1.536816500000000,197,0xD1,0xCE,Read,ACK
1.536848000000000,197,0xD1,0x02,Read,ACK
1.536879500000000,197,0xD1,0x30,Read,ACK
1.536911000000000,197,0xD1,0xF0,Read,ACK
1.536942500000000,197,0xD1,0xED,Read,ACK
1.536973500000000,197,0xD1,0xFF,Read,ACK
1.537010500000000,197,0xD1,0xE0,Read,ACK
1.537042000000000,197,0xD1,0xFF,Read,ACK
1.537072000000000,197,0xD1,0xF4,Read,ACK
1.537103500000000,197,0xD1,0xFF,Read,ACK
1.537135000000000,197,0xD1,0xF8,Read,NAK
1.542129000000000,198,0xD0,0x3B,Write,ACK
1.542247000000000,199,0xD1,0xC2,Read,ACK
1.542278500000000,199,0xD1,0xB8,Read,ACK
1.542310000000000,199,0xD1,0x01,Read,ACK
1.542341500000000,199,0xD1,0xEC,Read,ACK
1.542373000000000,199,0xD1,0x02,Read,ACK
1.542404500000000,199,0xD1,0x7E,Read,ACK
1.542436000000000,199,0xD1,0xF0,Read,ACK
1.542467500000000,199,0xD1,0xF5,Read,ACK
1.542498500000000,199,0xD1,0xFF,Read,ACK
1.542530000000000,199,0xD1,0xDF,Read,ACK
1.542561500000000,199,0xD1,0xFF,Read,ACK
1.542593000000000,199,0xD1,0xF3,Read,ACK
1.542624500000000,199,0xD1,0xFF,Read,ACK
1.542657000000000,199,0xD1,0xF8,Read,NAK
1.542824000000000,200,0xD0,0x3B,Write,ACK
1.542933000000000,201,0xD1,0xC2,Read,ACK
1.542962500000000,201,0xD1,0xB8,Read,ACK
1.542994000000000,201,0xD1,0x01,Read,ACK
1.543025500000000,201,0xD1,0xEC,Read,ACK
1.543057000000000,201,0xD1,0x02,Read,ACK
1.543088000000000,201,0xD1,0x7E,Read,ACK
1.543119500000000,201,0xD1,0xF0,Read,ACK
1.543150000000000,201,0xD1,0xF5,Read,ACK
1.543181500000000,201,0xD1,0xFF,Read,ACK
1.543213000000000,201,0xD1,0xDF,Read,ACK
1.543244500000000,201,0xD1,0xFF,Read,ACK
1.543283000000000,201,0xD1,0xF3,Read,ACK
1.543314500000000,201,0xD1,0xFF,Read,ACK
1.543346000000000,201,0xD1,0xF8,Read,NAK
1.543511500000000,202,0xD0,0x3B,Write,ACK
1.543620000000000,203,0xD1,0xC2,Read,ACK
1.543651500000000,203,0xD1,0xB8,Read,ACK
1.543692500000000,203,0xD1,0x01,Read,ACK
1.543724000000000,203,0xD1,0xEC,Read,ACK
1.543755500000000,203,0xD1,0x02,Read,ACK
1.543787000000000,203,0xD1,0x7E,Read,ACK
1.543818000000000,203,0xD1,0xF0,Read,ACK
1.543849500000000,203,0xD1,0xF5,Read,ACK
1.543881000000000,203,0xD1,0xFF,Read,ACK
1.543912500000000,203,0xD1,0xDF,Read,ACK
1.543944000000000,203,0xD1,0xFF,Read,ACK
1.543976000000000,203,0xD1,0xF3,Read,ACK
1.544007000000000,203,0xD1,0xFF,Read,ACK
1.544038500000000,203,0xD1,0xF8,Read,NAK
1.544211000000000,204,0xD0,0x3B,Write,ACK
1.544318500000000,205,0xD1,0xC2,Read,ACK
1.544350000000000,205,0xD1,0xB8,Read,ACK
1.544381500000000,205,0xD1,0x01,Read,ACK
1.544413000000000,205,0xD1,0xEC,Read,ACK
1.544444500000000,205,0xD1,0x02,Read,ACK
1.544476000000000,205,0xD1,0x7E,Read,ACK
1.544507000000000,205,0xD1,0xF0,Read,ACK
1.544538500000000,205,0xD1,0xF5,Read,ACK
1.544570000000000,205,0xD1,0xFF,Read,ACK
1.544601500000000,205,0xD1,0xDF,Read,ACK
1.544633000000000,205,0xD1,0xFF,Read,ACK
1.544664500000000,205,0xD1,0xF3,Read,ACK
1.544696000000000,205,0xD1,0xFF,Read,ACK
1.544728000000000,205,0xD1,0xF8,Read,NAK
1.544894500000000,206,0xD0,0x3B,Write,ACK
1.545001500000000,207,0xD1,0xC2,Read,ACK
1.545033000000000,207,0xD1,0xAA,Read,ACK
1.545064500000000,207,0xD1,0x01,Read,ACK
1.545096000000000,207,0xD1,0xF4,Read,ACK
1.545127500000000,207,0xD1,0x02,Read,ACK
1.545159000000000,207,0xD1,0x6E,Read,ACK
1.545195500000000,207,0xD1,0xF0,Read,ACK
1.545227000000000,207,0xD1,0xF6,Read,ACK
1.545258500000000,207,0xD1,0xFF,Read,ACK
1.545290000000000,207,0xD1,0xDF,Read,ACK
1.545321500000000,207,0xD1,0xFF,Read,ACK
1.545351500000000,207,0xD1,0xF3,Read,ACK
1.545383000000000,207,0xD1,0xFF,Read,ACK
1.545414500000000,207,0xD1,0xF9,Read,NAK
1.545579500000000,208,0xD0,0x3B,Write,ACK
1.545688500000000,209,0xD1,0xC2,Read,ACK
1.545720000000000,209,0xD1,0xAA,Read,ACK
1.545763000000000,209,0xD1,0x01,Read,ACK
1.545794500000000,209,0xD1,0xF4,Read,ACK
1.545826000000000,209,0xD1,0x02,Read,ACK
1.545855500000000,209,0xD1,0x6E,Read,ACK
1.545887000000000,209,0xD1,0xF0,Read,ACK
1.545918500000000,209,0xD1,0xF6,Read,ACK
1.545949500000000,209,0xD1,0xFF,Read,ACK
1.545981000000000,209,0xD1,0xDF,Read,ACK
1.546012500000000,209,0xD1,0xFF,Read,ACK
1.546044000000000,209,0xD1,0xF3,Read,ACK
1.546075500000000,209,0xD1,0xFF,Read,ACK
1.546107000000000,209,0xD1,0xF9,Read,NAK
1.546278000000000,210,0xD0,0x3B,Write,ACK
1.546388000000000,211,0xD1,0xC2,Read,ACK
1.546419000000000,211,0xD1,0xAA,Read,ACK
1.546450500000000,211,0xD1,0x01,Read,ACK
1.546482000000000,211,0xD1,0xF4,Read,ACK
1.546513500000000,211,0xD1,0x02,Read,ACK
1.546545000000000,211,0xD1,0x6E,Read,ACK
1.546576500000000,211,0xD1,0xF0,Read,ACK
1.546608000000000,211,0xD1,0xF6,Read,ACK
1.546639500000000,211,0xD1,0xFF,Read,ACK
1.546671000000000,211,0xD1,0xDF,Read,ACK
1.546702000000000,211,0xD1,0xFF,Read,ACK
1.546733500000000,211,0xD1,0xF3,Read,ACK
1.546765000000000,211,0xD1,0xFF,Read,ACK
1.546797500000000,211,0xD1,0xF9,Read,NAK
1.546963000000000,212,0xD0,0x3B,Write,ACK
1.547081000000000,213,0xD1,0xC2,Read,ACK
1.547112500000000,213,0xD1,0xAA,Read,ACK
1.547144000000000,213,0xD1,0x01,Read,ACK
1.547175000000000,213,0xD1,0xF4,Read,ACK
1.547206500000000,213,0xD1,0x02,Read,ACK
1.547241500000000,213,0xD1,0x6E,Read,ACK
1.547273000000000,213,0xD1,0xF0,Read,ACK
1.547304500000000,213,0xD1,0xF6,Read,ACK
1.547336000000000,213,0xD1,0xFF,Read,ACK
1.547367000000000,213,0xD1,0xDF,Read,ACK
1.547398500000000,213,0xD1,0xFF,Read,ACK
1.547429000000000,213,0xD1,0xF3,Read,ACK
1.547460000000000,213,0xD1,0xFF,Read,ACK
1.547491500000000,213,0xD1,0xF9,Read,NAK
1.547657000000000,214,0xD0,0x3B,Write,ACK
1.547765500000000,215,0xD1,0xC2,Read,ACK
1.547797000000000,215,0xD1,0xAA,Read,ACK
1.547834000000000,215,0xD1,0x01,Read,ACK
1.547865000000000,215,0xD1,0xF4,Read,ACK
1.547896500000000,215,0xD1,0x02,Read,ACK
1.547928000000000,215,0xD1,0x6E,Read,ACK
1.547959500000000,215,0xD1,0xF0,Read,ACK
1.547991000000000,215,0xD1,0xF6,Read,ACK
1.548022500000000,215,0xD1,0xFF,Read,ACK
1.548062500000000,215,0xD1,0xDF,Read,ACK
1.548094000000000,215,0xD1,0xFF,Read,ACK
1.548125500000000,215,0xD1,0xF3,Read,ACK
1.548157000000000,215,0xD1,0xFF,Read,ACK
1.548188500000000,215,0xD1,0xF9,Read,NAK
1.548360000000000,216,0xD0,0x3B,Write,ACK
1.548468000000000,217,0xD1,0xC2,Read,ACK
1.548499000000000,217,0xD1,0xAA,Read,ACK
1.548530500000000,217,0xD1,0x01,Read,ACK
1.548562000000000,217,0xD1,0xF4,Read,ACK
1.548593500000000,217,0xD1,0x02,Read,ACK
1.548625000000000,217,0xD1,0x6E,Read,ACK
1.548656500000000,217,0xD1,0xF0,Read,ACK
1.548688000000000,217,0xD1,0xF6,Read,ACK
1.548719500000000,217,0xD1,0xFF,Read,ACK
1.548751000000000,217,0xD1,0xDF,Read,ACK
1.548782000000000,217,0xD1,0xFF,Read,ACK
1.548813500000000,217,0xD1,0xF3,Read,ACK
1.548861000000000,217,0xD1,0xFF,Read,ACK
1.548892000000000,217,0xD1,0xF9,Read,NAK
1.549058000000000,218,0xD0,0x3B,Write,ACK
1.549167500000000,219,0xD1,0xC2,Read,ACK
1.549199000000000,219,0xD1,0xAA,Read,ACK
1.549230500000000,219,0xD1,0x01,Read,ACK
1.549262000000000,219,0xD1,0xF4,Read,ACK
1.549292500000000,219,0xD1,0x02,Read,ACK
1.549324000000000,219,0xD1,0x6E,Read,ACK
1.549355000000000,219,0xD1,0xF0,Read,ACK
1.549386500000000,219,0xD1,0xF6,Read,ACK
1.549418000000000,219,0xD1,0xFF,Read,ACK
1.549449500000000,219,0xD1,0xDF,Read,ACK
1.549490000000000,219,0xD1,0xFF,Read,ACK
1.549521500000000,219,0xD1,0xF3,Read,ACK
1.549553000000000,219,0xD1,0xFF,Read,ACK
1.549584500000000,219,0xD1,0xF9,Read,NAK
1.549751000000000,220,0xD0,0x3B,Write,ACK
1.549860000000000,221,0xD1,0xC2,Read,ACK
1.549902500000000,221,0xD1,0xAA,Read,ACK
1.549934000000000,221,0xD1,0x01,Read,ACK
1.549965500000000,221,0xD1,0xF4,Read,ACK
1.549997000000000,221,0xD1,0x02,Read,ACK
1.550028500000000,221,0xD1,0x6E,Read,ACK
1.550060000000000,221,0xD1,0xF0,Read,ACK
1.550091500000000,221,0xD1,0xF6,Read,ACK
1.550123000000000,221,0xD1,0xFF,Read,ACK
1.550154500000000,221,0xD1,0xDF,Read,ACK
1.550185500000000,221,0xD1,0xFF,Read,ACK
1.550217000000000,221,0xD1,0xF3,Read,ACK
1.550257500000000,221,0xD1,0xFF,Read,ACK
1.550289000000000,221,0xD1,0xF9,Read,NAK
1.550454500000000,222,0xD0,0x3B,Write,ACK
1.550572500000000,223,0xD1,0xC2,Read,ACK
1.550604000000000,223,0xD1,0xD6,Read,ACK
1.550635500000000,223,0xD1,0x02,Read,ACK
1.550667000000000,223,0xD1,0x00,Read,ACK
1.550698000000000,223,0xD1,0x02,Read,ACK
1.550729500000000,223,0xD1,0x64,Read,ACK
1.550761000000000,223,0xD1,0xF0,Read,ACK
1.550792500000000,223,0xD1,0xF4,Read,ACK
1.550824000000000,223,0xD1,0xFF,Read,ACK
1.550855500000000,223,0xD1,0xDF,Read,ACK
1.550887000000000,223,0xD1,0xFF,Read,ACK
1.550934000000000,223,0xD1,0xF4,Read,ACK
1.550965500000000,223,0xD1,0xFF,Read,ACK
1.550997000000000,223,0xD1,0xF9,Read,NAK
1.551172000000000,224,0xD0,0x3B,Write,ACK
1.551280500000000,225,0xD1,0xC2,Read,ACK
1.551312000000000,225,0xD1,0xD6,Read,ACK
1.551343000000000,225,0xD1,0x02,Read,ACK
1.551374000000000,225,0xD1,0x00,Read,ACK
1.551405500000000,225,0xD1,0x02,Read,ACK
1.551437000000000,225,0xD1,0x64,Read,ACK
1.551468500000000,225,0xD1,0xF0,Read,ACK
1.551500000000000,225,0xD1,0xF4,Read,ACK
1.551531500000000,225,0xD1,0xFF,Read,ACK
1.551563500000000,225,0xD1,0xDF,Read,ACK
1.551595000000000,225,0xD1,0xFF,Read,ACK
1.551626500000000,225,0xD1,0xF4,Read,ACK
1.551658000000000,225,0xD1,0xFF,Read,ACK
1.551689500000000,225,0xD1,0xF9,Read,NAK
1.551855500000000,226,0xD0,0x3B,Write,ACK
1.551973500000000,227,0xD1,0xC2,Read,ACK
1.552005000000000,227,0xD1,0xD6,Read,ACK
1.552036500000000,227,0xD1,0x02,Read,ACK
1.552068000000000,227,0xD1,0x00,Read,ACK
1.552099500000000,227,0xD1,0x02,Read,ACK
1.552131000000000,227,0xD1,0x64,Read,ACK
1.552160500000000,227,0xD1,0xF0,Read,ACK
1.552192000000000,227,0xD1,0xF4,Read,ACK
1.552223500000000,227,0xD1,0xFF,Read,ACK
1.552255000000000,227,0xD1,0xDF,Read,ACK
1.552286000000000,227,0xD1,0xFF,Read,ACK
1.552317500000000,227,0xD1,0xF4,Read,ACK
1.552354500000000,227,0xD1,0xFF,Read,ACK
1.552386000000000,227,0xD1,0xF9,Read,NAK
1.552552000000000,228,0xD0,0x3B,Write,ACK
1.552670000000000,229,0xD1,0xC2,Read,ACK
1.552701500000000,229,0xD1,0xD6,Read,ACK
1.552733000000000,229,0xD1,0x02,Read,ACK
1.552764500000000,229,0xD1,0x00,Read,ACK
1.552796000000000,229,0xD1,0x02,Read,ACK
1.552827500000000,229,0xD1,0x64,Read,ACK
1.552858500000000,229,0xD1,0xF0,Read,ACK
1.552890000000000,229,0xD1,0xF4,Read,ACK
1.552921500000000,229,0xD1,0xFF,Read,ACK
1.552953000000000,229,0xD1,0xDF,Read,ACK
1.553000000000000,229,0xD1,0xFF,Read,ACK
1.553031500000000,229,0xD1,0xF4,Read,ACK
1.553063000000000,229,0xD1,0xFF,Read,ACK
1.553094500000000,229,0xD1,0xF9,Read,NAK
1.558108000000000,230,0xD0,0x3B,Write,ACK
1.558241500000000,231,0xD1,0xC2,Read,ACK
1.558273000000000,231,0xD1,0xD8,Read,ACK
1.558304500000000,231,0xD1,0x01,Read,ACK
1.558336000000000,231,0xD1,0xFE,Read,ACK
1.558367500000000,231,0xD1,0x02,Read,ACK
1.558399000000000,231,0xD1,0x6E,Read,ACK
1.558430500000000,231,0xD1,0xF0,Read,ACK
1.558462000000000,231,0xD1,0xEC,Read,ACK
1.558492500000000,231,0xD1,0xFF,Read,ACK
1.558524000000000,231,0xD1,0xDF,Read,ACK
1.558555500000000,231,0xD1,0xFF,Read,ACK
1.558586500000000,231,0xD1,0xF3,Read,ACK
1.558618000000000,231,0xD1,0xFF,Read,ACK
1.558649500000000,231,0xD1,0xF8,Read,NAK
1.558815000000000,232,0xD0,0x3B,Write,ACK
1.558924000000000,233,0xD1,0xC2,Read,ACK
1.558955500000000,233,0xD1,0xD8,Read,ACK
1.558987000000000,233,0xD1,0x01,Read,ACK
1.559018500000000,233,0xD1,0xFE,Read,ACK
1.559050000000000,233,0xD1,0x02,Read,ACK
1.559081000000000,233,0xD1,0x6E,Read,ACK
1.559112500000000,233,0xD1,0xF0,Read,ACK
1.559144000000000,233,0xD1,0xEC,Read,ACK
1.559175500000000,233,0xD1,0xFF,Read,ACK
1.559218500000000,233,0xD1,0xDF,Read,ACK
1.559250000000000,233,0xD1,0xFF,Read,ACK
1.559281500000000,233,0xD1,0xF3,Read,ACK
1.559317500000000,233,0xD1,0xFF,Read,ACK
1.559349000000000,233,0xD1,0xF8,Read,NAK
1.559514500000000,234,0xD0,0x3B,Write,ACK
1.559623500000000,235,0xD1,0xC2,Read,ACK
1.559655000000000,235,0xD1,0xD8,Read,ACK
1.559686500000000,235,0xD1,0x01,Read,ACK
1.559718000000000,235,0xD1,0xFE,Read,ACK
1.559749500000000,235,0xD1,0x02,Read,ACK
1.559781000000000,235,0xD1,0x6E,Read,ACK
1.559812000000000,235,0xD1,0xF0,Read,ACK
1.559844500000000,235,0xD1,0xEC,Read,ACK
1.559876000000000,235,0xD1,0xFF,Read,ACK
1.559907500000000,235,0xD1,0xDF,Read,ACK
1.559938500000000,235,0xD1,0xFF,Read,ACK
1.559970000000000,235,0xD1,0xF3,Read,ACK
1.560001500000000,235,0xD1,0xFF,Read,ACK
1.560033000000000,235,0xD1,0xF8,Read,NAK
1.560199000000000,236,0xD0,0x3B,Write,ACK
1.560323500000000,237,0xD1,0xC2,Read,ACK
1.560353500000000,237,0xD1,0xAC,Read,ACK
1.560384500000000,237,0xD1,0x01,Read,ACK
1.560416000000000,237,0xD1,0xF0,Read,ACK
1.560447500000000,237,0xD1,0x02,Read,ACK
1.560479000000000,237,0xD1,0x56,Read,ACK
1.560510500000000,237,0xD1,0xF0,Read,ACK
1.560541000000000,237,0xD1,0xED,Read,ACK
1.560572500000000,237,0xD1,0xFF,Read,ACK
1.560604000000000,237,0xD1,0xDF,Read,ACK
1.560635500000000,237,0xD1,0xFF,Read,ACK
1.560667000000000,237,0xD1,0xF4,Read,ACK
1.560698500000000,237,0xD1,0xFF,Read,ACK
1.560729500000000,237,0xD1,0xF8,Read,NAK
1.560903500000000,238,0xD0,0x3B,Write,ACK
1.561012500000000,239,0xD1,0xC2,Read,ACK
1.561044000000000,239,0xD1,0xAC,Read,ACK
1.561075500000000,239,0xD1,0x01,Read,ACK
1.561107000000000,239,0xD1,0xF0,Read,ACK
1.561138500000000,239,0xD1,0x02,Read,ACK
1.561170000000000,239,0xD1,0x56,Read,ACK
1.561201000000000,239,0xD1,0xF0,Read,ACK
1.561232500000000,239,0xD1,0xED,Read,ACK
1.561264000000000,239,0xD1,0xFF,Read,ACK
1.561294500000000,239,0xD1,0xDF,Read,ACK
1.561326000000000,239,0xD1,0xFF,Read,ACK
1.561364000000000,239,0xD1,0xF4,Read,ACK
1.561395500000000,239,0xD1,0xFF,Read,ACK
1.561426500000000,239,0xD1,0xF8,Read,NAK
1.561598000000000,240,0xD0,0x3B,Write,ACK
1.561707000000000,241,0xD1,0xC2,Read,ACK
1.561738500000000,241,0xD1,0xAC,Read,ACK
1.561770000000000,241,0xD1,0x01,Read,ACK
1.561801000000000,241,0xD1,0xF0,Read,ACK
1.561832500000000,241,0xD1,0x02,Read,ACK
1.561864000000000,241,0xD1,0x56,Read,ACK
1.561895500000000,241,0xD1,0xF0,Read,ACK
1.561925500000000,241,0xD1,0xED,Read,ACK
1.561957000000000,241,0xD1,0xFF,Read,ACK
1.561988500000000,241,0xD1,0xDF,Read,ACK
1.562020000000000,241,0xD1,0xFF,Read,ACK
1.562051500000000,241,0xD1,0xF4,Read,ACK
1.562083000000000,241,0xD1,0xFF,Read,ACK
1.562114000000000,241,0xD1,0xF8,Read,NAK
1.562280000000000,242,0xD0,0x3B,Write,ACK
1.562411500000000,243,0xD1,0xC2,Read,ACK
1.562443000000000,243,0xD1,0xAC,Read,ACK
1.562474000000000,243,0xD1,0x01,Read,ACK
1.562505500000000,243,0xD1,0xF0,Read,ACK
1.562537000000000,243,0xD1,0x02,Read,ACK
1.562568500000000,243,0xD1,0x56,Read,ACK
1.562599000000000,243,0xD1,0xF0,Read,ACK
1.562630500000000,243,0xD1,0xED,Read,ACK
1.562662000000000,243,0xD1,0xFF,Read,ACK
1.562693500000000,243,0xD1,0xDF,Read,ACK
1.562725000000000,243,0xD1,0xFF,Read,ACK
1.562756500000000,243,0xD1,0xF4,Read,ACK
1.562788000000000,243,0xD1,0xFF,Read,ACK
1.562819000000000,243,0xD1,0xF8,Read,NAK
1.562994500000000,244,0xD0,0x3B,Write,ACK
1.563103500000000,245,0xD1,0xC2,Read,ACK
1.563135000000000,245,0xD1,0xAC,Read,ACK
1.563166500000000,245,0xD1,0x01,Read,ACK
1.563198000000000,245,0xD1,0xF0,Read,ACK
1.563229500000000,245,0xD1,0x02,Read,ACK
1.563261000000000,245,0xD1,0x56,Read,ACK
1.563292500000000,245,0xD1,0xF0,Read,ACK
1.563323500000000,245,0xD1,0xED,Read,ACK
1.563358000000000,245,0xD1,0xFF,Read,ACK
1.563389500000000,245,0xD1,0xDF,Read,ACK
1.563419000000000,245,0xD1,0xFF,Read,ACK
1.563450500000000,245,0xD1,0xF4,Read,ACK
1.563482000000000,245,0xD1,0xFF,Read,ACK
1.563513500000000,245,0xD1,0xF8,Read,NAK
1.563685000000000,246,0xD0,0x3B,Write,ACK
1.563793500000000,247,0xD1,0xC2,Read,ACK
1.563825000000000,247,0xD1,0xAC,Read,ACK
1.563856500000000,247,0xD1,0x01,Read,ACK
1.563888000000000,247,0xD1,0xF0,Read,ACK
1.563919500000000,247,0xD1,0x02,Read,ACK
1.563951000000000,247,0xD1,0x56,Read,ACK
1.563985500000000,247,0xD1,0xF0,Read,ACK
1.564016500000000,247,0xD1,0xED,Read,ACK
1.564048000000000,247,0xD1,0xFF,Read,ACK
1.564079500000000,247,0xD1,0xDF,Read,ACK
1.564111000000000,247,0xD1,0xFF,Read,ACK
1.564142500000000,247,0xD1,0xF4,Read,ACK
1.564174000000000,247,0xD1,0xFF,Read,ACK
1.564205500000000,247,0xD1,0xF8,Read,NAK
1.564387500000000,248,0xD0,0x3B,Write,ACK
1.564505000000000,249,0xD1,0xC2,Read,ACK
1.564536500000000,249,0xD1,0xAC,Read,ACK
1.564568000000000,249,0xD1,0x01,Read,ACK
1.564599500000000,249,0xD1,0xF0,Read,ACK
1.564630000000000,249,0xD1,0x02,Read,ACK
1.564661500000000,249,0xD1,0x56,Read,ACK
1.564693000000000,249,0xD1,0xF0,Read,ACK
1.564724500000000,249,0xD1,0xED,Read,ACK
1.564756000000000,249,0xD1,0xFF,Read,ACK
1.564787000000000,249,0xD1,0xDF,Read,ACK
1.564818500000000,249,0xD1,0xFF,Read,ACK
1.564850000000000,249,0xD1,0xF4,Read,ACK
1.564881500000000,249,0xD1,0xFF,Read,ACK
1.564913000000000,249,0xD1,0xF8,Read,NAK
1.565088000000000,250,0xD0,0x3B,Write,ACK
1.565197000000000,251,0xD1,0xC2,Read,ACK
1.565228500000000,251,0xD1,0xCC,Read,ACK
1.565260000000000,251,0xD1,0x01,Read,ACK
1.565291500000000,251,0xD1,0xFA,Read,ACK
1.565323000000000,251,0xD1,0x02,Read,ACK
1.565354500000000,251,0xD1,0x66,Read,ACK
1.565386000000000,251,0xD1,0xF0,Read,ACK
1.565428500000000,251,0xD1,0xEC,Read,ACK
1.565460000000000,251,0xD1,0xFF,Read,ACK
1.565490000000000,251,0xD1,0xDF,Read,ACK
1.565521000000000,251,0xD1,0xFF,Read,ACK
1.565552500000000,251,0xD1,0xF3,Read,ACK
1.565584000000000,251,0xD1,0xFF,Read,ACK
1.565615500000000,251,0xD1,0xF8,Read,NAK
1.565787000000000,252,0xD0,0x3B,Write,ACK
1.565896000000000,253,0xD1,0xC2,Read,ACK
1.565927500000000,253,0xD1,0xCC,Read,ACK
1.565959000000000,253,0xD1,0x01,Read,ACK
1.565990500000000,253,0xD1,0xFA,Read,ACK
1.566022000000000,253,0xD1,0x02,Read,ACK
1.566054000000000,253,0xD1,0x66,Read,ACK
1.566085500000000,253,0xD1,0xF0,Read,ACK
1.566117000000000,253,0xD1,0xEC,Read,ACK
1.566148500000000,253,0xD1,0xFF,Read,ACK
1.566180000000000,253,0xD1,0xDF,Read,ACK
1.566211500000000,253,0xD1,0xFF,Read,ACK
1.566242500000000,253,0xD1,0xF3,Read,ACK
1.566274000000000,253,0xD1,0xFF,Read,ACK
1.566305500000000,253,0xD1,0xF8,Read,NAK
1.566496500000000,254,0xD0,0x3B,Write,ACK
1.566605500000000,255,0xD1,0xC2,Read,ACK
1.566637000000000,255,0xD1,0xCC,Read,ACK
1.566673500000000,255,0xD1,0x01,Read,ACK
1.566705000000000,255,0xD1,0xFA,Read,ACK
1.566736500000000,255,0xD1,0x02,Read,ACK
1.566768000000000,255,0xD1,0x66,Read,ACK
1.566799500000000,255,0xD1,0xF0,Read,ACK
1.566831000000000,255,0xD1,0xEC,Read,ACK
1.566862500000000,255,0xD1,0xFF,Read,ACK
1.566894000000000,255,0xD1,0xDF,Read,ACK
1.566925000000000,255,0xD1,0xFF,Read,ACK
1.566956500000000,255,0xD1,0xF3,Read,ACK
1.566988000000000,255,0xD1,0xFF,Read,ACK
1.567019500000000,255,0xD1,0xF8,Read,NAK
1.567194500000000,256,0xD0,0x3B,Write,ACK
1.567303500000000,257,0xD1,0xC2,Read,ACK
1.567335000000000,257,0xD1,0xCC,Read,ACK
1.567366500000000,257,0xD1,0x01,Read,ACK
1.567398000000000,257,0xD1,0xFA,Read,ACK
1.567429000000000,257,0xD1,0x02,Read,ACK
1.567460500000000,257,0xD1,0x66,Read,ACK
1.567508000000000,257,0xD1,0xF0,Read,ACK
1.567539500000000,257,0xD1,0xEC,Read,ACK
1.567571000000000,257,0xD1,0xFF,Read,ACK
1.567602500000000,257,0xD1,0xDF,Read,ACK
1.567634000000000,257,0xD1,0xFF,Read,ACK
1.567665500000000,257,0xD1,0xF3,Read,ACK
1.567698000000000,257,0xD1,0xFF,Read,ACK
1.567729500000000,257,0xD1,0xF8,Read,NAK
1.567895500000000,258,0xD0,0x3B,Write,ACK
1.568004500000000,259,0xD1,0xC2,Read,ACK
1.568036000000000,259,0xD1,0xCC,Read,ACK
1.568067500000000,259,0xD1,0x01,Read,ACK
1.568099000000000,259,0xD1,0xFA,Read,ACK
1.568129000000000,259,0xD1,0x02,Read,ACK
1.568160500000000,259,0xD1,0x66,Read,ACK
1.568192000000000,259,0xD1,0xF0,Read,ACK
1.568223500000000,259,0xD1,0xEC,Read,ACK
1.568255000000000,259,0xD1,0xFF,Read,ACK
1.568286500000000,259,0xD1,0xDF,Read,ACK
1.568317500000000,259,0xD1,0xFF,Read,ACK
1.568349000000000,259,0xD1,0xF3,Read,ACK
1.568380500000000,259,0xD1,0xFF,Read,ACK
1.568412000000000,259,0xD1,0xF8,Read,NAK
1.568603000000000,260,0xD0,0x3B,Write,ACK
1.568717500000000,261,0xD1,0xC2,Read,ACK
1.568749000000000,261,0xD1,0xCC,Read,ACK
1.568780000000000,261,0xD1,0x01,Read,ACK
1.568811500000000,261,0xD1,0xFA,Read,ACK
1.568843000000000,261,0xD1,0x02,Read,ACK
1.568874500000000,261,0xD1,0x66,Read,ACK
1.568906000000000,261,0xD1,0xF0,Read,ACK
1.568937500000000,261,0xD1,0xEC,Read,ACK
1.568969000000000,261,0xD1,0xFF,Read,ACK
1.569000500000000,261,0xD1,0xDF,Read,ACK
1.569031500000000,261,0xD1,0xFF,Read,ACK
1.569063000000000,261,0xD1,0xF3,Read,ACK
1.569094500000000,261,0xD1,0xFF,Read,ACK
1.569126000000000,261,0xD1,0xF8,Read,NAK
1.574135500000000,262,0xD0,0x3B,Write,ACK
1.574244500000000,263,0xD1,0xC2,Read,ACK
1.574276000000000,263,0xD1,0x9A,Read,ACK
1.574307500000000,263,0xD1,0x02,Read,ACK
1.574337500000000,263,0xD1,0x0E,Read,ACK
1.574369000000000,263,0xD1,0x02,Read,ACK
1.574400500000000,263,0xD1,0x4A,Read,ACK
1.574432000000000,263,0xD1,0xF0,Read,ACK
1.574463000000000,263,0xD1,0xEC,Read,ACK
1.574494500000000,263,0xD1,0xFF,Read,ACK
1.574526000000000,263,0xD1,0xDF,Read,ACK
1.574557500000000,263,0xD1,0xFF,Read,ACK
1.574589000000000,263,0xD1,0xF3,Read,ACK
1.574620500000000,263,0xD1,0xFF,Read,ACK
1.574660500000000,263,0xD1,0xF8,Read,NAK
1.574849000000000,264,0xD0,0x3B,Write,ACK
1.574958000000000,265,0xD1,0xC2,Read,ACK
1.574989500000000,265,0xD1,0xC2,Read,ACK
1.575021000000000,265,0xD1,0x01,Read,ACK
1.575052500000000,265,0xD1,0xE0,Read,ACK
1.575084000000000,265,0xD1,0x02,Read,ACK
1.575115000000000,265,0xD1,0x5E,Read,ACK
1.575146500000000,265,0xD1,0xF0,Read,ACK
1.575178000000000,265,0xD1,0xF9,Read,ACK
1.575209500000000,265,0xD1,0xFF,Read,ACK
1.575241000000000,265,0xD1,0xE0,Read,ACK
1.575272500000000,265,0xD1,0xFF,Read,ACK
1.575304000000000,265,0xD1,0xF2,Read,ACK
1.575335500000000,265,0xD1,0xFF,Read,ACK
1.575369500000000,265,0xD1,0xF8,Read,NAK
1.575544500000000,266,0xD0,0x3B,Write,ACK
1.575653500000000,267,0xD1,0xC2,Read,ACK
1.575685000000000,267,0xD1,0xC2,Read,ACK
1.575716500000000,267,0xD1,0x01,Read,ACK
1.575748000000000,267,0xD1,0xE0,Read,ACK
1.575780500000000,267,0xD1,0x02,Read,ACK
1.575812000000000,267,0xD1,0x5E,Read,ACK
1.575843000000000,267,0xD1,0xF0,Read,ACK
1.575880000000000,267,0xD1,0xF9,Read,ACK
1.575911500000000,267,0xD1,0xFF,Read,ACK
1.575943000000000,267,0xD1,0xE0,Read,ACK
1.575974500000000,267,0xD1,0xFF,Read,ACK
1.576006000000000,267,0xD1,0xF2,Read,ACK
1.576037500000000,267,0xD1,0xFF,Read,ACK
1.576069000000000,267,0xD1,0xF8,Read,NAK
1.576235500000000,268,0xD0,0x3B,Write,ACK
1.576344500000000,269,0xD1,0xC2,Read,ACK
1.576375500000000,269,0xD1,0xC2,Read,ACK
1.576406000000000,269,0xD1,0x01,Read,ACK
1.576437000000000,269,0xD1,0xE0,Read,ACK
1.576468500000000,269,0xD1,0x02,Read,ACK
1.576500000000000,269,0xD1,0x5E,Read,ACK
1.576531500000000,269,0xD1,0xF0,Read,ACK
1.576563000000000,269,0xD1,0xF9,Read,ACK
1.576594500000000,269,0xD1,0xFF,Read,ACK
1.576626000000000,269,0xD1,0xE0,Read,ACK
1.576657500000000,269,0xD1,0xFF,Read,ACK
1.576697500000000,269,0xD1,0xF2,Read,ACK
1.576729000000000,269,0xD1,0xFF,Read,ACK
1.576760500000000,269,0xD1,0xF8,Read,NAK
1.576945000000000,270,0xD0,0x3B,Write,ACK
1.577054000000000,271,0xD1,0xC2,Read,ACK
1.577085500000000,271,0xD1,0xC2,Read,ACK
1.577117000000000,271,0xD1,0x01,Read,ACK
1.577148500000000,271,0xD1,0xE0,Read,ACK
1.577179500000000,271,0xD1,0x02,Read,ACK
1.577211000000000,271,0xD1,0x5E,Read,ACK
1.577242500000000,271,0xD1,0xF0,Read,ACK
1.577274000000000,271,0xD1,0xF9,Read,ACK
1.577305500000000,271,0xD1,0xFF,Read,ACK
1.577337000000000,271,0xD1,0xE0,Read,ACK
1.577368500000000,271,0xD1,0xFF,Read,ACK
1.577400000000000,271,0xD1,0xF2,Read,ACK
1.577440500000000,271,0xD1,0xFF,Read,ACK
1.577472000000000,271,0xD1,0xF8,Read,NAK
1.577637000000000,272,0xD0,0x3B,Write,ACK
1.577755000000000,273,0xD1,0xC2,Read,ACK
1.577786500000000,273,0xD1,0xC2,Read,ACK
1.577818000000000,273,0xD1,0x01,Read,ACK
1.577850000000000,273,0xD1,0xE0,Read,ACK
1.577881500000000,273,0xD1,0x02,Read,ACK
1.577918500000000,273,0xD1,0x5E,Read,ACK
1.577950000000000,273,0xD1,0xF0,Read,ACK
1.577981500000000,273,0xD1,0xF9,Read,ACK
1.578013000000000,273,0xD1,0xFF,Read,ACK
1.578044500000000,273,0xD1,0xE0,Read,ACK
1.578076000000000,273,0xD1,0xFF,Read,ACK
1.578107000000000,273,0xD1,0xF2,Read,ACK
1.578138500000000,273,0xD1,0xFF,Read,ACK
1.578170000000000,273,0xD1,0xF8,Read,NAK
1.578335500000000,274,0xD0,0x3B,Write,ACK
1.578444500000000,275,0xD1,0xC2,Read,ACK
1.578474500000000,275,0xD1,0xC2,Read,ACK
1.578506000000000,275,0xD1,0x01,Read,ACK
1.578537500000000,275,0xD1,0xE0,Read,ACK
1.578569000000000,275,0xD1,0x02,Read,ACK
1.578600500000000,275,0xD1,0x5E,Read,ACK
1.578632000000000,275,0xD1,0xF0,Read,ACK
1.578663500000000,275,0xD1,0xF9,Read,ACK
1.578695000000000,275,0xD1,0xFF,Read,ACK
1.578726500000000,275,0xD1,0xE0,Read,ACK
1.578756000000000,275,0xD1,0xFF,Read,ACK
1.578787500000000,275,0xD1,0xF2,Read,ACK
1.578819000000000,275,0xD1,0xFF,Read,ACK
1.578850000000000,275,0xD1,0xF8,Read,NAK
1.579026500000000,276,0xD0,0x3B,Write,ACK
1.579135500000000,277,0xD1,0xC2,Read,ACK
1.579167000000000,277,0xD1,0xC2,Read,ACK
1.579198500000000,277,0xD1,0x01,Read,ACK
1.579230000000000,277,0xD1,0xE0,Read,ACK
1.579261500000000,277,0xD1,0x02,Read,ACK
1.579293000000000,277,0xD1,0x5E,Read,ACK
1.579324500000000,277,0xD1,0xF0,Read,ACK
1.579355500000000,277,0xD1,0xF9,Read,ACK
1.579387000000000,277,0xD1,0xFF,Read,ACK
1.579418500000000,277,0xD1,0xE0,Read,ACK
1.579450000000000,277,0xD1,0xFF,Read,ACK
1.579481500000000,277,0xD1,0xF2,Read,ACK
1.579511500000000,277,0xD1,0xFF,Read,ACK
1.579543000000000,277,0xD1,0xF8,Read,NAK
1.579708500000000,278,0xD0,0x3B,Write,ACK
1.579817000000000,279,0xD1,0xC2,Read,ACK
1.579848500000000,279,0xD1,0xC2,Read,ACK
1.579889000000000,279,0xD1,0x01,Read,ACK
1.579921000000000,279,0xD1,0xE0,Read,ACK
1.579952500000000,279,0xD1,0x02,Read,ACK
1.579983500000000,279,0xD1,0x5E,Read,ACK
1.580014500000000,279,0xD1,0xF0,Read,ACK
1.580046000000000,279,0xD1,0xF9,Read,ACK
1.580077500000000,279,0xD1,0xFF,Read,ACK
1.580109000000000,279,0xD1,0xE0,Read,ACK
1.580140500000000,279,0xD1,0xFF,Read,ACK
1.580172000000000,279,0xD1,0xF2,Read,ACK
1.580203500000000,279,0xD1,0xFF,Read,ACK
1.580234500000000,279,0xD1,0xF8,Read,NAK
1.580400500000000,280,0xD0,0x3B,Write,ACK
1.580509000000000,281,0xD1,0xC2,Read,ACK
1.580545500000000,281,0xD1,0xA8,Read,ACK
1.580577000000000,281,0xD1,0x01,Read,ACK
1.580608500000000,281,0xD1,0xF0,Read,ACK
1.580640000000000,281,0xD1,0x02,Read,ACK
1.580671500000000,281,0xD1,0x14,Read,ACK
1.580703000000000,281,0xD1,0xF0,Read,ACK
1.580734500000000,281,0xD1,0xF9,Read,ACK
1.580765500000000,281,0xD1,0xFF,Read,ACK
1.580795500000000,281,0xD1,0xDF,Read,ACK
1.580827000000000,281,0xD1,0xFF,Read,ACK
1.580858500000000,281,0xD1,0xF4,Read,ACK
1.580889500000000,281,0xD1,0xFF,Read,ACK
1.580921000000000,281,0xD1,0xF8,Read,NAK
1.581095500000000,282,0xD0,0x3B,Write,ACK
1.581204500000000,283,0xD1,0xC2,Read,ACK
1.581236000000000,283,0xD1,0xA8,Read,ACK
1.581267500000000,283,0xD1,0x01,Read,ACK
1.581299000000000,283,0xD1,0xF0,Read,ACK
1.581330500000000,283,0xD1,0x02,Read,ACK
1.581362000000000,283,0xD1,0x14,Read,ACK
1.581393500000000,283,0xD1,0xF0,Read,ACK
1.581424500000000,283,0xD1,0xF9,Read,ACK
1.581456000000000,283,0xD1,0xFF,Read,ACK
1.581487500000000,283,0xD1,0xDF,Read,ACK
1.581519000000000,283,0xD1,0xFF,Read,ACK
1.581550500000000,283,0xD1,0xF4,Read,ACK
1.581580500000000,283,0xD1,0xFF,Read,ACK
1.581612000000000,283,0xD1,0xF8,Read,NAK
1.581778000000000,284,0xD0,0x3B,Write,ACK
1.581895500000000,285,0xD1,0xC2,Read,ACK
1.581927000000000,285,0xD1,0xA8,Read,ACK
1.581958500000000,285,0xD1,0x01,Read,ACK
1.581991000000000,285,0xD1,0xF0,Read,ACK
1.582021500000000,285,0xD1,0x02,Read,ACK
1.582053000000000,285,0xD1,0x14,Read,ACK
1.582084500000000,285,0xD1,0xF0,Read,ACK
1.582115500000000,285,0xD1,0xF9,Read,ACK
1.582147000000000,285,0xD1,0xFF,Read,ACK
1.582178500000000,285,0xD1,0xDF,Read,ACK
1.582210000000000,285,0xD1,0xFF,Read,ACK
1.582241500000000,285,0xD1,0xF4,Read,ACK
1.582273000000000,285,0xD1,0xFF,Read,ACK
1.582304500000000,285,0xD1,0xF8,Read,NAK
1.582470500000000,286,0xD0,0x3B,Write,ACK
1.582579500000000,287,0xD1,0xC2,Read,ACK
1.582616000000000,287,0xD1,0xA8,Read,ACK
1.582647500000000,287,0xD1,0x01,Read,ACK
1.582679000000000,287,0xD1,0xF0,Read,ACK
1.582710500000000,287,0xD1,0x02,Read,ACK
1.582742000000000,287,0xD1,0x14,Read,ACK
1.582773000000000,287,0xD1,0xF0,Read,ACK
1.582804500000000,287,0xD1,0xF9,Read,ACK
1.582843000000000,287,0xD1,0xFF,Read,ACK
1.582874000000000,287,0xD1,0xDF,Read,ACK
1.582905500000000,287,0xD1,0xFF,Read,ACK
1.582937000000000,287,0xD1,0xF4,Read,ACK
1.582968500000000,287,0xD1,0xFF,Read,ACK
1.583000000000000,287,0xD1,0xF8,Read,NAK
1.583170000000000,288,0xD0,0x3B,Write,ACK
1.583279000000000,289,0xD1,0xC2,Read,ACK
1.583310500000000,289,0xD1,0xA8,Read,ACK
1.583342000000000,289,0xD1,0x01,Read,ACK
1.583373500000000,289,0xD1,0xF0,Read,ACK
1.583405000000000,289,0xD1,0x02,Read,ACK
1.583436500000000,289,0xD1,0x14,Read,ACK
1.583467500000000,289,0xD1,0xF0,Read,ACK
1.583499000000000,289,0xD1,0xF9,Read,ACK
1.583530500000000,289,0xD1,0xFF,Read,ACK
1.583562000000000,289,0xD1,0xDF,Read,ACK
1.583593500000000,289,0xD1,0xFF,Read,ACK
1.583625000000000,289,0xD1,0xF4,Read,ACK
1.583655000000000,289,0xD1,0xFF,Read,ACK
1.583686500000000,289,0xD1,0xF8,Read,NAK
1.583852500000000,290,0xD0,0x3B,Write,ACK
1.583970000000000,291,0xD1,0xC2,Read,ACK
1.584001500000000,291,0xD1,0xA8,Read,ACK
1.584033000000000,291,0xD1,0x01,Read,ACK
1.584066500000000,291,0xD1,0xF0,Read,ACK
1.584098000000000,291,0xD1,0x02,Read,ACK
1.584129500000000,291,0xD1,0x14,Read,ACK
1.584161000000000,291,0xD1,0xF0,Read,ACK
1.584192500000000,291,0xD1,0xF9,Read,ACK
1.584224000000000,291,0xD1,0xFF,Read,ACK
1.584255000000000,291,0xD1,0xDF,Read,ACK
1.584286500000000,291,0xD1,0xFF,Read,ACK
1.584318000000000,291,0xD1,0xF4,Read,ACK
1.584349500000000,291,0xD1,0xFF,Read,ACK
1.584381000000000,291,0xD1,0xF8,Read,NAK
1.584546500000000,292,0xD0,0x3B,Write,ACK
1.584655500000000,293,0xD1,0xC2,Read,ACK
1.584685500000000,293,0xD1,0xA8,Read,ACK
1.584717000000000,293,0xD1,0x01,Read,ACK
1.584748500000000,293,0xD1,0xF0,Read,ACK
1.584778000000000,293,0xD1,0x02,Read,ACK
1.584809500000000,293,0xD1,0x14,Read,ACK
1.584841000000000,293,0xD1,0xF0,Read,ACK
1.584872500000000,293,0xD1,0xF9,Read,ACK
1.584904000000000,293,0xD1,0xFF,Read,ACK
1.584935500000000,293,0xD1,0xDF,Read,ACK
1.584967000000000,293,0xD1,0xFF,Read,ACK
1.584998500000000,293,0xD1,0xF4,Read,ACK
1.585029500000000,293,0xD1,0xFF,Read,ACK
1.585061000000000,293,0xD1,0xF8,Read,NAK
1.590082000000000,294,0xD0,0x3B,Write,ACK
1.590196500000000,295,0xD1,0xC2,Read,ACK
1.590228000000000,295,0xD1,0xB2,Read,ACK
1.590271000000000,295,0xD1,0x01,Read,ACK
1.590302500000000,295,0xD1,0xF8,Read,ACK
1.590334000000000,295,0xD1,0x02,Read,ACK
1.590365500000000,295,0xD1,0x66,Read,ACK
1.590397000000000,295,0xD1,0xF0,Read,ACK
1.590428000000000,295,0xD1,0xF7,Read,ACK
1.590459500000000,295,0xD1,0xFF,Read,ACK
1.590491000000000,295,0xD1,0xE0,Read,ACK
1.590522500000000,295,0xD1,0xFF,Read,ACK
1.590554000000000,295,0xD1,0xF4,Read,ACK
1.590585500000000,295,0xD1,0xFF,Read,ACK
1.590617000000000,295,0xD1,0xF9,Read,NAK
1.590783500000000,296,0xD0,0x3B,Write,ACK
1.590895500000000,297,0xD1,0xC2,Read,ACK
1.590927000000000,297,0xD1,0xB2,Read,ACK
1.590958500000000,297,0xD1,0x01,Read,ACK
1.590990000000000,297,0xD1,0xF8,Read,ACK
1.591023500000000,297,0xD1,0x02,Read,ACK
1.591055000000000,297,0xD1,0x66,Read,ACK
1.591086500000000,297,0xD1,0xF0,Read,ACK
1.591118000000000,297,0xD1,0xF7,Read,ACK
1.591149500000000,297,0xD1,0xFF,Read,ACK
1.591181000000000,297,0xD1,0xE0,Read,ACK
1.591218000000000,297,0xD1,0xFF,Read,ACK
1.591249500000000,297,0xD1,0xF4,Read,ACK
1.591281000000000,297,0xD1,0xFF,Read,ACK
1.591311000000000,297,0xD1,0xF9,Read,NAK
1.591477500000000,298,0xD0,0x3B,Write,ACK
1.591586500000000,299,0xD1,0xC2,Read,ACK
1.591617500000000,299,0xD1,0xB2,Read,ACK
1.591649000000000,299,0xD1,0x01,Read,ACK
1.591680500000000,299,0xD1,0xF8,Read,ACK
1.591712000000000,299,0xD1,0x02,Read,ACK
1.591743500000000,299,0xD1,0x66,Read,ACK
1.591775000000000,299,0xD1,0xF0,Read,ACK
1.591806500000000,299,0xD1,0xF7,Read,ACK
1.591838000000000,299,0xD1,0xFF,Read,ACK
1.591869500000000,299,0xD1,0xE0,Read,ACK
1.591900500000000,299,0xD1,0xFF,Read,ACK
1.591933000000000,299,0xD1,0xF4,Read,ACK
1.591964500000000,299,0xD1,0xFF,Read,ACK
1.591994000000000,299,0xD1,0xF9,Read,NAK
1.592160500000000,300,0xD0,0x3B,Write,ACK
1.592271000000000,301,0xD1,0xC2,Read,ACK
1.592302500000000,301,0xD1,0xB2,Read,ACK
1.592341000000000,301,0xD1,0x01,Read,ACK
1.592372500000000,301,0xD1,0xF8,Read,ACK
1.592404000000000,301,0xD1,0x02,Read,ACK
1.592435500000000,301,0xD1,0x66,Read,ACK
1.592466500000000,301,0xD1,0xF0,Read,ACK
1.592498000000000,301,0xD1,0xF7,Read,ACK
1.592529500000000,301,0xD1,0xFF,Read,ACK
1.592561000000000,301,0xD1,0xE0,Read,ACK
1.592592500000000,301,0xD1,0xFF,Read,ACK
1.592624000000000,301,0xD1,0xF4,Read,ACK
1.592655500000000,301,0xD1,0xFF,Read,ACK
1.592687000000000,301,0xD1,0xF9,Read,NAK
1.592853000000000,302,0xD0,0x3B,Write,ACK
1.592967000000000,303,0xD1,0xC2,Read,ACK
1.592998500000000,303,0xD1,0xB2,Read,ACK
1.593030000000000,303,0xD1,0x01,Read,ACK
1.593070000000000,303,0xD1,0xF8,Read,ACK
1.593101500000000,303,0xD1,0x02,Read,ACK
1.593133000000000,303,0xD1,0x66,Read,ACK
1.593164500000000,303,0xD1,0xF0,Read,ACK
1.593196000000000,303,0xD1,0xF7,Read,ACK
1.593227500000000,303,0xD1,0xFF,Read,ACK
1.593264500000000,303,0xD1,0xE0,Read,ACK
1.593295500000000,303,0xD1,0xFF,Read,ACK
1.593327000000000,303,0xD1,0xF4,Read,ACK
1.593374500000000,303,0xD1,0xFF,Read,ACK
1.593405500000000,303,0xD1,0xF9,Read,NAK
1.593571500000000,304,0xD0,0x3B,Write,ACK
1.593680000000000,305,0xD1,0xC2,Read,ACK
1.593711500000000,305,0xD1,0xB2,Read,ACK
1.593743000000000,305,0xD1,0x01,Read,ACK
1.593774500000000,305,0xD1,0xF8,Read,ACK
1.593806000000000,305,0xD1,0x02,Read,ACK
1.593837500000000,305,0xD1,0x66,Read,ACK
1.593869000000000,305,0xD1,0xF0,Read,ACK
1.593900500000000,305,0xD1,0xF7,Read,ACK
1.593932000000000,305,0xD1,0xFF,Read,ACK
1.593963000000000,305,0xD1,0xE0,Read,ACK
1.594002000000000,305,0xD1,0xFF,Read,ACK
1.594033000000000,305,0xD1,0xF4,Read,ACK
1.594064500000000,305,0xD1,0xFF,Read,ACK
1.594094000000000,305,0xD1,0xF9,Read,NAK
1.594260500000000,306,0xD0,0x3B,Write,ACK
1.594369000000000,307,0xD1,0xC2,Read,ACK
1.594411500000000,307,0xD1,0xB2,Read,ACK
1.594443000000000,307,0xD1,0x01,Read,ACK
1.594474500000000,307,0xD1,0xF8,Read,ACK
1.594506000000000,307,0xD1,0x02,Read,ACK
1.594537500000000,307,0xD1,0x66,Read,ACK
1.594569000000000,307,0xD1,0xF0,Read,ACK
1.594600500000000,307,0xD1,0xF7,Read,ACK
1.594632000000000,307,0xD1,0xFF,Read,ACK
1.594663000000000,307,0xD1,0xE0,Read,ACK
1.594694500000000,307,0xD1,0xFF,Read,ACK
1.594726000000000,307,0xD1,0xF4,Read,ACK
1.594757500000000,307,0xD1,0xFF,Read,ACK
1.594789000000000,307,0xD1,0xF9,Read,NAK
1.594955500000000,308,0xD0,0x3B,Write,ACK
1.595074000000000,309,0xD1,0xC2,Read,ACK
1.595105500000000,309,0xD1,0xD0,Read,ACK
1.595145500000000,309,0xD1,0x01,Read,ACK
1.595177000000000,309,0xD1,0xF8,Read,ACK
1.595208500000000,309,0xD1,0x02,Read,ACK
1.595240000000000,309,0xD1,0x62,Read,ACK
1.595271500000000,309,0xD1,0xF0,Read,ACK
1.595308500000000,309,0xD1,0xF6,Read,ACK
1.595339500000000,309,0xD1,0xFF,Read,ACK
1.595371000000000,309,0xD1,0xE0,Read,ACK
1.595402500000000,309,0xD1,0xFF,Read,ACK
1.595447500000000,309,0xD1,0xF4,Read,ACK
1.595479000000000,309,0xD1,0xFF,Read,ACK
1.595510500000000,309,0xD1,0xF8,Read,NAK
1.595676500000000,310,0xD0,0x3B,Write,ACK
1.595785500000000,311,0xD1,0xC2,Read,ACK
1.595817000000000,311,0xD1,0xD0,Read,ACK
1.595848500000000,311,0xD1,0x01,Read,ACK
1.595880000000000,311,0xD1,0xF8,Read,ACK
1.595911500000000,311,0xD1,0x02,Read,ACK
1.595943000000000,311,0xD1,0x62,Read,ACK
1.595974000000000,311,0xD1,0xF0,Read,ACK
1.596005500000000,311,0xD1,0xF6,Read,ACK
1.596037000000000,311,0xD1,0xFF,Read,ACK
1.596071500000000,311,0xD1,0xE0,Read,ACK
1.596103000000000,311,0xD1,0xFF,Read,ACK
1.596139000000000,311,0xD1,0xF4,Read,ACK
1.596170500000000,311,0xD1,0xFF,Read,ACK
1.596201500000000,311,0xD1,0xF8,Read,NAK
1.596374000000000,312,0xD0,0x3B,Write,ACK
1.596483500000000,313,0xD1,0xC2,Read,ACK
1.596515000000000,313,0xD1,0xD0,Read,ACK
1.596546500000000,313,0xD1,0x01,Read,ACK
1.596578000000000,313,0xD1,0xF8,Read,ACK
1.596609500000000,313,0xD1,0x02,Read,ACK
1.596641000000000,313,0xD1,0x62,Read,ACK
1.596672500000000,313,0xD1,0xF0,Read,ACK
1.596704000000000,313,0xD1,0xF6,Read,ACK
1.596735000000000,313,0xD1,0xFF,Read,ACK
1.596766500000000,313,0xD1,0xE0,Read,ACK
1.596798000000000,313,0xD1,0xFF,Read,ACK
1.596829500000000,313,0xD1,0xF4,Read,ACK
1.596861000000000,313,0xD1,0xFF,Read,ACK
1.596892500000000,313,0xD1,0xF8,Read,NAK
1.597067500000000,314,0xD0,0x3B,Write,ACK
1.597185500000000,315,0xD1,0xC2,Read,ACK
1.597217000000000,315,0xD1,0xD0,Read,ACK
1.597248500000000,315,0xD1,0x01,Read,ACK
1.597280000000000,315,0xD1,0xF8,Read,ACK
1.597311500000000,315,0xD1,0x02,Read,ACK
1.597343000000000,315,0xD1,0x62,Read,ACK
1.597373500000000,315,0xD1,0xF0,Read,ACK
1.597405000000000,315,0xD1,0xF6,Read,ACK
1.597436000000000,315,0xD1,0xFF,Read,ACK
1.597467500000000,315,0xD1,0xE0,Read,ACK
1.597515000000000,315,0xD1,0xFF,Read,ACK
1.597546500000000,315,0xD1,0xF4,Read,ACK
1.597577500000000,315,0xD1,0xFF,Read,ACK
1.597609000000000,315,0xD1,0xF8,Read,NAK
1.597775500000000,316,0xD0,0x3B,Write,ACK
1.597884500000000,317,0xD1,0xC2,Read,ACK
1.597916000000000,317,0xD1,0xD0,Read,ACK
1.597947000000000,317,0xD1,0x01,Read,ACK
1.597978500000000,317,0xD1,0xF8,Read,ACK
1.598010000000000,317,0xD1,0x02,Read,ACK
1.598041500000000,317,0xD1,0x62,Read,ACK
1.598073000000000,317,0xD1,0xF0,Read,ACK
1.598104500000000,317,0xD1,0xF6,Read,ACK
1.598143000000000,317,0xD1,0xFF,Read,ACK
1.598183000000000,317,0xD1,0xE0,Read,ACK
1.598214500000000,317,0xD1,0xFF,Read,ACK
1.598246000000000,317,0xD1,0xF4,Read,ACK
1.598277500000000,317,0xD1,0xFF,Read,ACK
1.598309000000000,317,0xD1,0xF8,Read,NAK
1.598480000000000,318,0xD0,0x3B,Write,ACK
1.598604500000000,319,0xD1,0xC2,Read,ACK
1.598636000000000,319,0xD1,0xD0,Read,ACK
1.598667500000000,319,0xD1,0x01,Read,ACK
1.598699000000000,319,0xD1,0xF8,Read,ACK
1.598730500000000,319,0xD1,0x02,Read,ACK
1.598762000000000,319,0xD1,0x62,Read,ACK
1.598793500000000,319,0xD1,0xF0,Read,ACK
1.598825000000000,319,0xD1,0xF6,Read,ACK
1.598856000000000,319,0xD1,0xFF,Read,ACK
1.598887500000000,319,0xD1,0xE0,Read,ACK
1.598919000000000,319,0xD1,0xFF,Read,ACK
1.598950500000000,319,0xD1,0xF4,Read,ACK
1.598982000000000,319,0xD1,0xFF,Read,ACK
1.599013500000000,319,0xD1,0xF8,Read,NAK
1.599177000000000,320,0xD0,0x3B,Write,ACK
1.599286000000000,321,0xD1,0xC2,Read,ACK
1.599317500000000,321,0xD1,0xD0,Read,ACK
1.599349000000000,321,0xD1,0x01,Read,ACK
1.599380500000000,321,0xD1,0xF8,Read,ACK
1.599411000000000,321,0xD1,0x02,Read,ACK
1.599442500000000,321,0xD1,0x62,Read,ACK
1.599474000000000,321,0xD1,0xF0,Read,ACK
1.599505000000000,321,0xD1,0xF6,Read,ACK
1.599536500000000,321,0xD1,0xFF,Read,ACK
1.599584000000000,321,0xD1,0xE0,Read,ACK
1.599615500000000,321,0xD1,0xFF,Read,ACK
1.599647000000000,321,0xD1,0xF4,Read,ACK
1.599678000000000,321,0xD1,0xFF,Read,ACK
1.599709500000000,321,0xD1,0xF8,Read,NAK
1.599875500000000,322,0xD0,0x3B,Write,ACK
1.599984500000000,323,0xD1,0xC2,Read,ACK
1.600016000000000,323,0xD1,0xC8,Read,ACK
1.600047500000000,323,0xD1,0x01,Read,ACK
1.600079000000000,323,0xD1,0xEA,Read,ACK
1.600110500000000,323,0xD1,0x02,Read,ACK
1.600142000000000,323,0xD1,0xB4,Read,ACK
1.600173500000000,323,0xD1,0xF0,Read,ACK
1.600212000000000,323,0xD1,0xF3,Read,ACK
1.600243500000000,323,0xD1,0xFF,Read,ACK
1.600275000000000,323,0xD1,0xDF,Read,ACK
1.600306500000000,323,0xD1,0xFF,Read,ACK
1.600338000000000,323,0xD1,0xF2,Read,ACK
1.600369500000000,323,0xD1,0xFF,Read,ACK
1.600401000000000,323,0xD1,0xF8,Read,NAK
1.600565500000000,324,0xD0,0x3B,Write,ACK
1.600690000000000,325,0xD1,0xC2,Read,ACK
1.600721500000000,325,0xD1,0xC8,Read,ACK
1.600753000000000,325,0xD1,0x01,Read,ACK
1.600784500000000,325,0xD1,0xEA,Read,ACK
1.600816000000000,325,0xD1,0x02,Read,ACK
1.600847500000000,325,0xD1,0xB4,Read,ACK
1.600879000000000,325,0xD1,0xF0,Read,ACK
1.600910500000000,325,0xD1,0xF3,Read,ACK
1.600941500000000,325,0xD1,0xFF,Read,ACK
1.600973000000000,325,0xD1,0xDF,Read,ACK
1.601004500000000,325,0xD1,0xFF,Read,ACK
1.601036000000000,325,0xD1,0xF2,Read,ACK
1.601067500000000,325,0xD1,0xFF,Read,ACK
1.601099000000000,325,0xD1,0xF8,Read,NAK
1.606114500000000,326,0xD0,0x3B,Write,ACK
1.606223500000000,327,0xD1,0xC2,Read,ACK
1.606255000000000,327,0xD1,0xC2,Read,ACK
1.606286500000000,327,0xD1,0x02,Read,ACK
1.606318000000000,327,0xD1,0x06,Read,ACK
1.606358000000000,327,0xD1,0x02,Read,ACK
1.606389500000000,327,0xD1,0x3A,Read,ACK
1.606424000000000,327,0xD1,0xF0,Read,ACK
1.606455500000000,327,0xD1,0xF7,Read,ACK
1.606487000000000,327,0xD1,0xFF,Read,ACK
1.606518500000000,327,0xD1,0xE0,Read,ACK
1.606555000000000,327,0xD1,0xFF,Read,ACK
1.606586500000000,327,0xD1,0xF3,Read,ACK
1.606618000000000,327,0xD1,0xFF,Read,ACK
1.606649500000000,327,0xD1,0xF9,Read,NAK
1.606831000000000,328,0xD0,0x3B,Write,ACK
1.606940000000000,329,0xD1,0xC2,Read,ACK
1.606971000000000,329,0xD1,0xC2,Read,ACK
1.607002500000000,329,0xD1,0x02,Read,ACK
1.607034000000000,329,0xD1,0x06,Read,ACK
1.607065500000000,329,0xD1,0x02,Read,ACK
1.607097000000000,329,0xD1,0x3A,Read,ACK
1.607128500000000,329,0xD1,0xF0,Read,ACK
1.607160000000000,329,0xD1,0xF7,Read,ACK
1.607191500000000,329,0xD1,0xFF,Read,ACK
1.607222500000000,329,0xD1,0xE0,Read,ACK
1.607254000000000,329,0xD1,0xFF,Read,ACK
1.607285500000000,329,0xD1,0xF3,Read,ACK
1.607317000000000,329,0xD1,0xFF,Read,ACK
1.607348500000000,329,0xD1,0xF9,Read,NAK
1.607532500000000,330,0xD0,0x3B,Write,ACK
1.607647000000000,331,0xD1,0xC2,Read,ACK
1.607678500000000,331,0xD1,0xC2,Read,ACK
1.607710000000000,331,0xD1,0x02,Read,ACK
1.607741500000000,331,0xD1,0x06,Read,ACK
1.607772500000000,331,0xD1,0x02,Read,ACK
1.607804000000000,331,0xD1,0x3A,Read,ACK
1.607835500000000,331,0xD1,0xF0,Read,ACK
1.607868000000000,331,0xD1,0xF7,Read,ACK
1.607899500000000,331,0xD1,0xFF,Read,ACK
1.607931000000000,331,0xD1,0xE0,Read,ACK
1.607962000000000,331,0xD1,0xFF,Read,ACK
1.607993500000000,331,0xD1,0xF3,Read,ACK
1.608025000000000,331,0xD1,0xFF,Read,ACK
1.608056500000000,331,0xD1,0xF9,Read,NAK
1.608222500000000,332,0xD0,0x3B,Write,ACK
1.608331500000000,333,0xD1,0xC2,Read,ACK
1.608363000000000,333,0xD1,0xC2,Read,ACK
1.608394500000000,333,0xD1,0x02,Read,ACK
1.608424000000000,333,0xD1,0x06,Read,ACK
1.608455500000000,333,0xD1,0x02,Read,ACK
1.608494000000000,333,0xD1,0x3A,Read,ACK
1.608525500000000,333,0xD1,0xF0,Read,ACK
1.608557000000000,333,0xD1,0xF7,Read,ACK
1.608588500000000,333,0xD1,0xFF,Read,ACK
1.608619000000000,333,0xD1,0xE0,Read,ACK
1.608650500000000,333,0xD1,0xFF,Read,ACK
1.608682000000000,333,0xD1,0xF3,Read,ACK
1.608713500000000,333,0xD1,0xFF,Read,ACK
1.608744500000000,333,0xD1,0xF9,Read,NAK
1.608927000000000,334,0xD0,0x3B,Write,ACK
1.609035500000000,335,0xD1,0xC2,Read,ACK
1.609067000000000,335,0xD1,0xC2,Read,ACK
1.609098500000000,335,0xD1,0x02,Read,ACK
1.609130000000000,335,0xD1,0x06,Read,ACK
1.609161500000000,335,0xD1,0x02,Read,ACK
1.609193000000000,335,0xD1,0x3A,Read,ACK
1.609224500000000,335,0xD1,0xF0,Read,ACK
1.609256000000000,335,0xD1,0xF7,Read,ACK
1.609287500000000,335,0xD1,0xFF,Read,ACK
1.609318500000000,335,0xD1,0xE0,Read,ACK
1.609350000000000,335,0xD1,0xFF,Read,ACK
1.609381500000000,335,0xD1,0xF3,Read,ACK
1.609413000000000,335,0xD1,0xFF,Read,ACK
1.609442500000000,335,0xD1,0xF9,Read,NAK
1.609617500000000,336,0xD0,0x3B,Write,ACK
1.609725500000000,337,0xD1,0xC2,Read,ACK
1.609757000000000,337,0xD1,0xC2,Read,ACK
1.609788500000000,337,0xD1,0x02,Read,ACK
1.609820000000000,337,0xD1,0x06,Read,ACK
1.609851000000000,337,0xD1,0x02,Read,ACK
1.609882500000000,337,0xD1,0x3A,Read,ACK
1.609914000000000,337,0xD1,0xF0,Read,ACK
1.609944500000000,337,0xD1,0xF7,Read,ACK
1.609976000000000,337,0xD1,0xFF,Read,ACK
1.610007000000000,337,0xD1,0xE0,Read,ACK
1.610038500000000,337,0xD1,0xFF,Read,ACK
1.610070000000000,337,0xD1,0xF3,Read,ACK
1.610101500000000,337,0xD1,0xFF,Read,ACK
1.610133000000000,337,0xD1,0xF9,Read,NAK
1.610297500000000,338,0xD0,0x3B,Write,ACK
1.610406500000000,339,0xD1,0xC2,Read,ACK
1.610438000000000,339,0xD1,0xB6,Read,ACK
1.610467500000000,339,0xD1,0x02,Read,ACK
1.610499000000000,339,0xD1,0x0C,Read,ACK
1.610530500000000,339,0xD1,0x02,Read,ACK
1.610563000000000,339,0xD1,0x40,Read,ACK
1.610594000000000,339,0xD1,0xF0,Read,ACK
1.610625500000000,339,0xD1,0xF2,Read,ACK
1.610656000000000,339,0xD1,0xFF,Read,ACK
1.610687500000000,339,0xD1,0xDF,Read,ACK
1.610719000000000,339,0xD1,0xFF,Read,ACK
1.610750500000000,339,0xD1,0xF3,Read,ACK
1.610782000000000,339,0xD1,0xFF,Read,ACK
1.610813500000000,339,0xD1,0xF8,Read,NAK
1.610977500000000,340,0xD0,0x3B,Write,ACK
1.611086500000000,341,0xD1,0xC2,Read,ACK
1.611118000000000,341,0xD1,0xB6,Read,ACK
1.611149500000000,341,0xD1,0x02,Read,ACK
1.611181000000000,341,0xD1,0x0C,Read,ACK
1.611212500000000,341,0xD1,0x02,Read,ACK
1.611243500000000,341,0xD1,0x40,Read,ACK
1.611275000000000,341,0xD1,0xF0,Read,ACK
1.611306500000000,341,0xD1,0xF2,Read,ACK
1.611338000000000,341,0xD1,0xFF,Read,ACK
1.611369500000000,341,0xD1,0xDF,Read,ACK
1.611401000000000,341,0xD1,0xFF,Read,ACK
1.611432500000000,341,0xD1,0xF3,Read,ACK
1.611464000000000,341,0xD1,0xFF,Read,ACK
1.611495000000000,341,0xD1,0xF8,Read,NAK
1.611675500000000,342,0xD0,0x3B,Write,ACK
1.611784500000000,343,0xD1,0xC2,Read,ACK
1.611816000000000,343,0xD1,0xB6,Read,ACK
1.611847000000000,343,0xD1,0x02,Read,ACK
1.611878500000000,343,0xD1,0x0C,Read,ACK
1.611910000000000,343,0xD1,0x02,Read,ACK
1.611941500000000,343,0xD1,0x40,Read,ACK
1.611973000000000,343,0xD1,0xF0,Read,ACK
1.612009500000000,343,0xD1,0xF2,Read,ACK
1.612041000000000,343,0xD1,0xFF,Read,ACK
1.612072500000000,343,0xD1,0xDF,Read,ACK
1.612104000000000,343,0xD1,0xFF,Read,ACK
1.612135500000000,343,0xD1,0xF3,Read,ACK
1.612167000000000,343,0xD1,0xFF,Read,ACK
1.612198000000000,343,0xD1,0xF8,Read,NAK
1.612363000000000,344,0xD0,0x3B,Write,ACK
1.612472000000000,345,0xD1,0xC2,Read,ACK
1.612503500000000,345,0xD1,0xB6,Read,ACK
1.612535000000000,345,0xD1,0x02,Read,ACK
1.612566500000000,345,0xD1,0x0C,Read,ACK
1.612598000000000,345,0xD1,0x02,Read,ACK
1.612634500000000,345,0xD1,0x40,Read,ACK
1.612666000000000,345,0xD1,0xF0,Read,ACK
1.612700500000000,345,0xD1,0xF2,Read,ACK
1.612732000000000,345,0xD1,0xFF,Read,ACK
1.612763500000000,345,0xD1,0xDF,Read,ACK
1.612795000000000,345,0xD1,0xFF,Read,ACK
1.612826500000000,345,0xD1,0xF3,Read,ACK
1.612858000000000,345,0xD1,0xFF,Read,ACK
1.612889000000000,345,0xD1,0xF8,Read,NAK
1.613069000000000,346,0xD0,0x3B,Write,ACK
1.613178000000000,347,0xD1,0xC2,Read,ACK
1.613209500000000,347,0xD1,0xB6,Read,ACK
1.613241000000000,347,0xD1,0x02,Read,ACK
1.613272500000000,347,0xD1,0x0C,Read,ACK
1.613303500000000,347,0xD1,0x02,Read,ACK
1.613335000000000,347,0xD1,0x40,Read,ACK
1.613366500000000,347,0xD1,0xF0,Read,ACK
1.613398000000000,347,0xD1,0xF2,Read,ACK
1.613429500000000,347,0xD1,0xFF,Read,ACK
1.613461000000000,347,0xD1,0xDF,Read,ACK
1.613492500000000,347,0xD1,0xFF,Read,ACK
1.613526500000000,347,0xD1,0xF3,Read,ACK
1.613557500000000,347,0xD1,0xFF,Read,ACK
1.613589000000000,347,0xD1,0xF8,Read,NAK
1.613769500000000,348,0xD0,0x3B,Write,ACK
1.613878500000000,349,0xD1,0xC2,Read,ACK
1.613910000000000,349,0xD1,0xB6,Read,ACK
1.613941500000000,349,0xD1,0x02,Read,ACK
1.613973000000000,349,0xD1,0x0C,Read,ACK
1.614004500000000,349,0xD1,0x02,Read,ACK
1.614036000000000,349,0xD1,0x40,Read,ACK
1.614078500000000,349,0xD1,0xF0,Read,ACK
1.614110000000000,349,0xD1,0xF2,Read,ACK
1.614141500000000,349,0xD1,0xFF,Read,ACK
1.614173000000000,349,0xD1,0xDF,Read,ACK
1.614204500000000,349,0xD1,0xFF,Read,ACK
1.614236000000000,349,0xD1,0xF3,Read,ACK
1.614267500000000,349,0xD1,0xFF,Read,ACK
1.614299000000000,349,0xD1,0xF8,Read,NAK
1.614464000000000,350,0xD0,0x3B,Write,ACK
1.614581500000000,351,0xD1,0xC2,Read,ACK
1.614613000000000,351,0xD1,0xB6,Read,ACK
1.614644500000000,351,0xD1,0x02,Read,ACK
1.614676000000000,351,0xD1,0x0C,Read,ACK
1.614706000000000,351,0xD1,0x02,Read,ACK
1.614743000000000,351,0xD1,0x40,Read,ACK
1.614774500000000,351,0xD1,0xF0,Read,ACK
1.614806000000000,351,0xD1,0xF2,Read,ACK
1.614837500000000,351,0xD1,0xFF,Read,ACK
1.614869000000000,351,0xD1,0xDF,Read,ACK
1.614900000000000,351,0xD1,0xFF,Read,ACK
1.614931500000000,351,0xD1,0xF3,Read,ACK
1.614963000000000,351,0xD1,0xFF,Read,ACK
1.614994500000000,351,0xD1,0xF8,Read,NAK
1.615175500000000,352,0xD0,0x3B,Write,ACK
1.615284500000000,353,0xD1,0xC2,Read,ACK
1.615316000000000,353,0xD1,0xB6,Read,ACK
1.615347500000000,353,0xD1,0x01,Read,ACK
1.615379000000000,353,0xD1,0xD6,Read,ACK
1.615410500000000,353,0xD1,0x02,Read,ACK
1.615442000000000,353,0xD1,0x62,Read,ACK
1.615473000000000,353,0xD1,0xF0,Read,ACK
1.615504500000000,353,0xD1,0xEF,Read,ACK
1.615536000000000,353,0xD1,0xFF,Read,ACK
1.615572000000000,353,0xD1,0xE0,Read,ACK
1.615603500000000,353,0xD1,0xFF,Read,ACK
1.615635000000000,353,0xD1,0xF3,Read,ACK
1.615666500000000,353,0xD1,0xFF,Read,ACK
1.615698000000000,353,0xD1,0xF8,Read,NAK
1.615878000000000,354,0xD0,0x3B,Write,ACK
1.615987000000000,355,0xD1,0xC2,Read,ACK
1.616018500000000,355,0xD1,0xB6,Read,ACK
1.616050000000000,355,0xD1,0x01,Read,ACK
1.616081000000000,355,0xD1,0xD6,Read,ACK
1.616112500000000,355,0xD1,0x02,Read,ACK
1.616149000000000,355,0xD1,0x62,Read,ACK
1.616180500000000,355,0xD1,0xF0,Read,ACK
1.616212000000000,355,0xD1,0xEF,Read,ACK
1.616243500000000,355,0xD1,0xFF,Read,ACK
1.616275000000000,355,0xD1,0xE0,Read,ACK
1.616306500000000,355,0xD1,0xFF,Read,ACK
1.616338000000000,355,0xD1,0xF3,Read,ACK
1.616369500000000,355,0xD1,0xFF,Read,ACK
1.616400500000000,355,0xD1,0xF8,Read,NAK
1.616566000000000,356,0xD0,0x3B,Write,ACK
1.616673000000000,357,0xD1,0xC2,Read,ACK
1.616704500000000,357,0xD1,0xB6,Read,ACK
1.616736000000000,357,0xD1,0x01,Read,ACK
1.616774500000000,357,0xD1,0xD6,Read,ACK
1.616805000000000,357,0xD1,0x02,Read,ACK
1.616836500000000,357,0xD1,0x62,Read,ACK
1.616868000000000,357,0xD1,0xF0,Read,ACK
1.616899500000000,357,0xD1,0xEF,Read,ACK
1.616931000000000,357,0xD1,0xFF,Read,ACK
1.616962500000000,357,0xD1,0xE0,Read,ACK
1.616994000000000,357,0xD1,0xFF,Read,ACK
1.617025500000000,357,0xD1,0xF3,Read,ACK
1.617056500000000,357,0xD1,0xFF,Read,ACK
1.617088000000000,357,0xD1,0xF8,Read,NAK
1.622115000000000,358,0xD0,0x3B,Write,ACK
1.622224000000000,359,0xD1,0xC2,Read,ACK
1.622255500000000,359,0xD1,0x80,Read,ACK
1.622287000000000,359,0xD1,0x01,Read,ACK
1.622318000000000,359,0xD1,0xCC,Read,ACK
1.622359000000000,359,0xD1,0x02,Read,ACK
1.622390500000000,359,0xD1,0x82,Read,ACK
1.622422000000000,359,0xD1,0xF0,Read,ACK
1.622453500000000,359,0xD1,0xF6,Read,ACK
1.622485000000000,359,0xD1,0xFF,Read,ACK
1.622516000000000,359,0xD1,0xDF,Read,ACK
1.622547500000000,359,0xD1,0xFF,Read,ACK
1.622579000000000,359,0xD1,0xF4,Read,ACK
1.622610500000000,359,0xD1,0xFF,Read,ACK
1.622640000000000,359,0xD1,0xF8,Read,NAK
1.622806000000000,360,0xD0,0x3B,Write,ACK
1.622920500000000,361,0xD1,0xC2,Read,ACK
1.622952000000000,361,0xD1,0x80,Read,ACK
1.622984000000000,361,0xD1,0x01,Read,ACK
1.623015500000000,361,0xD1,0xCC,Read,ACK
1.623047000000000,361,0xD1,0x02,Read,ACK
1.623078500000000,361,0xD1,0x82,Read,ACK
1.623109500000000,361,0xD1,0xF0,Read,ACK
1.623141000000000,361,0xD1,0xF6,Read,ACK
1.623172500000000,361,0xD1,0xFF,Read,ACK
1.623204000000000,361,0xD1,0xDF,Read,ACK
1.623235500000000,361,0xD1,0xFF,Read,ACK
1.623267000000000,361,0xD1,0xF4,Read,ACK
1.623298500000000,361,0xD1,0xFF,Read,ACK
1.623329500000000,361,0xD1,0xF8,Read,NAK
1.623511500000000,362,0xD0,0x3B,Write,ACK
1.623620000000000,363,0xD1,0xC2,Read,ACK
1.623651500000000,363,0xD1,0x80,Read,ACK
1.623683000000000,363,0xD1,0x01,Read,ACK
1.623714500000000,363,0xD1,0xCC,Read,ACK
1.623746000000000,363,0xD1,0x02,Read,ACK
1.623775500000000,363,0xD1,0x82,Read,ACK
1.623807000000000,363,0xD1,0xF0,Read,ACK
1.623838500000000,363,0xD1,0xF6,Read,ACK
1.623870000000000,363,0xD1,0xFF,Read,ACK
1.623901500000000,363,0xD1,0xDF,Read,ACK
1.623933000000000,363,0xD1,0xFF,Read,ACK
1.623963500000000,363,0xD1,0xF4,Read,ACK
1.623995000000000,363,0xD1,0xFF,Read,ACK
1.624025000000000,363,0xD1,0xF8,Read,NAK
1.624191000000000,364,0xD0,0x3B,Write,ACK
1.624300000000000,365,0xD1,0xC2,Read,ACK
1.624331500000000,365,0xD1,0x80,Read,ACK
1.624363000000000,365,0xD1,0x01,Read,ACK
1.624394500000000,365,0xD1,0xCC,Read,ACK
1.624429000000000,365,0xD1,0x02,Read,ACK
1.624460500000000,365,0xD1,0x82,Read,ACK
1.624492000000000,365,0xD1,0xF0,Read,ACK
1.624523000000000,365,0xD1,0xF6,Read,ACK
1.624554500000000,365,0xD1,0xFF,Read,ACK
1.624586000000000,365,0xD1,0xDF,Read,ACK
1.624617500000000,365,0xD1,0xFF,Read,ACK
1.624649000000000,365,0xD1,0xF4,Read,ACK
1.624680500000000,365,0xD1,0xFF,Read,ACK
1.624712000000000,365,0xD1,0xF8,Read,NAK
1.624886500000000,366,0xD0,0x3B,Write,ACK
1.625001000000000,367,0xD1,0xC2,Read,ACK
1.625032500000000,367,0xD1,0xA6,Read,ACK
1.625062500000000,367,0xD1,0x01,Read,ACK
1.625094000000000,367,0xD1,0xCE,Read,ACK
1.625125500000000,367,0xD1,0x02,Read,ACK
1.625157000000000,367,0xD1,0x8A,Read,ACK
1.625188500000000,367,0xD1,0xF0,Read,ACK
1.625220000000000,367,0xD1,0xF5,Read,ACK
1.625251500000000,367,0xD1,0xFF,Read,ACK
1.625283000000000,367,0xD1,0xDF,Read,ACK
1.625314000000000,367,0xD1,0xFF,Read,ACK
1.625345500000000,367,0xD1,0xF3,Read,ACK
1.625377000000000,367,0xD1,0xFF,Read,ACK
1.625408500000000,367,0xD1,0xF9,Read,NAK
1.625587500000000,368,0xD0,0x3B,Write,ACK
1.625696500000000,369,0xD1,0xC2,Read,ACK
1.625728000000000,369,0xD1,0xA6,Read,ACK
1.625759500000000,369,0xD1,0x01,Read,ACK
1.625800000000000,369,0xD1,0xCE,Read,ACK
1.625831000000000,369,0xD1,0x02,Read,ACK
1.625862500000000,369,0xD1,0x8A,Read,ACK
1.625894000000000,369,0xD1,0xF0,Read,ACK
1.625925500000000,369,0xD1,0xF5,Read,ACK
1.625957000000000,369,0xD1,0xFF,Read,ACK
1.625994000000000,369,0xD1,0xDF,Read,ACK
1.626025500000000,369,0xD1,0xFF,Read,ACK
1.626057000000000,369,0xD1,0xF3,Read,ACK
1.626089000000000,369,0xD1,0xFF,Read,ACK
1.626120500000000,369,0xD1,0xF9,Read,NAK
1.626286500000000,370,0xD0,0x3B,Write,ACK
1.626395500000000,371,0xD1,0xC2,Read,ACK
1.626427000000000,371,0xD1,0xA6,Read,ACK
1.626458500000000,371,0xD1,0x01,Read,ACK
1.626499000000000,371,0xD1,0xCE,Read,ACK
1.626530500000000,371,0xD1,0x02,Read,ACK
1.626562000000000,371,0xD1,0x8A,Read,ACK
1.626593500000000,371,0xD1,0xF0,Read,ACK
1.626625000000000,371,0xD1,0xF5,Read,ACK
1.626656500000000,371,0xD1,0xFF,Read,ACK
1.626688000000000,371,0xD1,0xDF,Read,ACK
1.626719500000000,371,0xD1,0xFF,Read,ACK
1.626759500000000,371,0xD1,0xF3,Read,ACK
1.626791000000000,371,0xD1,0xFF,Read,ACK
1.626822500000000,371,0xD1,0xF9,Read,NAK
1.626988000000000,372,0xD0,0x3B,Write,ACK
1.627098000000000,373,0xD1,0xC2,Read,ACK
1.627128000000000,373,0xD1,0xA6,Read,ACK
1.627159500000000,373,0xD1,0x01,Read,ACK
1.627191000000000,373,0xD1,0xCE,Read,ACK
1.627222500000000,373,0xD1,0x02,Read,ACK
1.627254000000000,373,0xD1,0x8A,Read,ACK
1.627285000000000,373,0xD1,0xF0,Read,ACK
1.627316500000000,373,0xD1,0xF5,Read,ACK
1.627348000000000,373,0xD1,0xFF,Read,ACK
1.627379500000000,373,0xD1,0xDF,Read,ACK
1.627411000000000,373,0xD1,0xFF,Read,ACK
1.627442500000000,373,0xD1,0xF3,Read,ACK
1.627474000000000,373,0xD1,0xFF,Read,ACK
1.627505500000000,373,0xD1,0xF9,Read,NAK
1.627670500000000,374,0xD0,0x3B,Write,ACK
1.627788500000000,375,0xD1,0xC2,Read,ACK
1.627820000000000,375,0xD1,0xA6,Read,ACK
1.627851000000000,375,0xD1,0x01,Read,ACK
1.627882500000000,375,0xD1,0xCE,Read,ACK
1.627914000000000,375,0xD1,0x02,Read,ACK
1.627945500000000,375,0xD1,0x8A,Read,ACK
1.627977000000000,375,0xD1,0xF0,Read,ACK
1.628008500000000,375,0xD1,0xF5,Read,ACK
1.628043000000000,375,0xD1,0xFF,Read,ACK
1.628074500000000,375,0xD1,0xDF,Read,ACK
1.628106000000000,375,0xD1,0xFF,Read,ACK
1.628137500000000,375,0xD1,0xF3,Read,ACK
1.628167500000000,375,0xD1,0xFF,Read,ACK
1.628199000000000,375,0xD1,0xF9,Read,NAK
1.628364500000000,376,0xD0,0x3B,Write,ACK
1.628473500000000,377,0xD1,0xC2,Read,ACK
1.628505000000000,377,0xD1,0xA6,Read,ACK
1.628536500000000,377,0xD1,0x01,Read,ACK
1.628571000000000,377,0xD1,0xCE,Read,ACK
1.628602500000000,377,0xD1,0x02,Read,ACK
1.628634000000000,377,0xD1,0x8A,Read,ACK
1.628665500000000,377,0xD1,0xF0,Read,ACK
1.628697000000000,377,0xD1,0xF5,Read,ACK
1.628728000000000,377,0xD1,0xFF,Read,ACK
1.628759500000000,377,0xD1,0xDF,Read,ACK
1.628791000000000,377,0xD1,0xFF,Read,ACK
1.628820500000000,377,0xD1,0xF3,Read,ACK
1.628852000000000,377,0xD1,0xFF,Read,ACK
1.628883500000000,377,0xD1,0xF9,Read,NAK
1.629049500000000,378,0xD0,0x3B,Write,ACK
1.629157500000000,379,0xD1,0xC2,Read,ACK
1.629196000000000,379,0xD1,0xA6,Read,ACK
1.629227500000000,379,0xD1,0x01,Read,ACK
1.629259000000000,379,0xD1,0xCE,Read,ACK
1.629290500000000,379,0xD1,0x02,Read,ACK
1.629322000000000,379,0xD1,0x8A,Read,ACK
1.629353500000000,379,0xD1,0xF0,Read,ACK
1.629385000000000,379,0xD1,0xF5,Read,ACK
1.629416000000000,379,0xD1,0xFF,Read,ACK
1.629447500000000,379,0xD1,0xDF,Read,ACK
1.629479000000000,379,0xD1,0xFF,Read,ACK
1.629510500000000,379,0xD1,0xF3,Read,ACK
1.629542000000000,379,0xD1,0xFF,Read,ACK
1.629573500000000,379,0xD1,0xF9,Read,NAK
1.629740500000000,380,0xD0,0x3B,Write,ACK
1.629849500000000,381,0xD1,0xC2,Read,ACK
1.629880500000000,381,0xD1,0xA6,Read,ACK
1.629910500000000,381,0xD1,0x01,Read,ACK
1.629942000000000,381,0xD1,0xCE,Read,ACK
1.629973500000000,381,0xD1,0x02,Read,ACK
1.630004500000000,381,0xD1,0x8A,Read,ACK
1.630036000000000,381,0xD1,0xF0,Read,ACK
1.630067500000000,381,0xD1,0xF5,Read,ACK
1.630098000000000,381,0xD1,0xFF,Read,ACK
1.630129500000000,381,0xD1,0xDF,Read,ACK
1.630161000000000,381,0xD1,0xFF,Read,ACK
1.630192500000000,381,0xD1,0xF3,Read,ACK
1.630231000000000,381,0xD1,0xFF,Read,ACK
1.630262500000000,381,0xD1,0xF9,Read,NAK
1.630428000000000,382,0xD0,0x3B,Write,ACK
1.630537000000000,383,0xD1,0xC2,Read,ACK
1.630568500000000,383,0xD1,0xBC,Read,ACK
1.630600000000000,383,0xD1,0x01,Read,ACK
1.630640500000000,383,0xD1,0xE4,Read,ACK
1.630672000000000,383,0xD1,0x02,Read,ACK
1.630703500000000,383,0xD1,0x42,Read,ACK
1.630735000000000,383,0xD1,0xF0,Read,ACK
1.630766500000000,383,0xD1,0xEF,Read,ACK
1.630798000000000,383,0xD1,0xFF,Read,ACK
1.630829500000000,383,0xD1,0xDF,Read,ACK
1.630860500000000,383,0xD1,0xFF,Read,ACK
1.630892000000000,383,0xD1,0xF3,Read,ACK
1.630923500000000,383,0xD1,0xFF,Read,ACK
1.630953000000000,383,0xD1,0xF9,Read,NAK
1.631117000000000,384,0xD0,0x3B,Write,ACK
1.631226000000000,385,0xD1,0xC2,Read,ACK
1.631265000000000,385,0xD1,0xBC,Read,ACK
1.631296000000000,385,0xD1,0x01,Read,ACK
1.631327500000000,385,0xD1,0xE4,Read,ACK
1.631359000000000,385,0xD1,0x02,Read,ACK
1.631390500000000,385,0xD1,0x42,Read,ACK
1.631422000000000,385,0xD1,0xF0,Read,ACK
1.631453500000000,385,0xD1,0xEF,Read,ACK
1.631485000000000,385,0xD1,0xFF,Read,ACK
1.631516500000000,385,0xD1,0xDF,Read,ACK
1.631547500000000,385,0xD1,0xFF,Read,ACK
1.631579000000000,385,0xD1,0xF3,Read,ACK
1.631610500000000,385,0xD1,0xFF,Read,ACK
1.631642000000000,385,0xD1,0xF9,Read,NAK
1.631809000000000,386,0xD0,0x3B,Write,ACK
1.631924500000000,387,0xD1,0xC2,Read,ACK
1.631956000000000,387,0xD1,0xBC,Read,ACK
1.631987500000000,387,0xD1,0x01,Read,ACK
1.632018500000000,387,0xD1,0xE4,Read,ACK
1.632050000000000,387,0xD1,0x02,Read,ACK
1.632081500000000,387,0xD1,0x42,Read,ACK
1.632113000000000,387,0xD1,0xF0,Read,ACK
1.632143500000000,387,0xD1,0xEF,Read,ACK
1.632175000000000,387,0xD1,0xFF,Read,ACK
1.632206500000000,387,0xD1,0xDF,Read,ACK
1.632238000000000,387,0xD1,0xFF,Read,ACK
1.632269500000000,387,0xD1,0xF3,Read,ACK
1.632299500000000,387,0xD1,0xFF,Read,ACK
1.632331000000000,387,0xD1,0xF9,Read,NAK
1.632496500000000,388,0xD0,0x3B,Write,ACK
1.632605500000000,389,0xD1,0xC2,Read,ACK
1.632637000000000,389,0xD1,0xBC,Read,ACK
1.632668500000000,389,0xD1,0x01,Read,ACK
1.632711500000000,389,0xD1,0xE4,Read,ACK
1.632743000000000,389,0xD1,0x02,Read,ACK
1.632774000000000,389,0xD1,0x42,Read,ACK
1.632805500000000,389,0xD1,0xF0,Read,ACK
1.632837000000000,389,0xD1,0xEF,Read,ACK
1.632868500000000,389,0xD1,0xFF,Read,ACK
1.632900000000000,389,0xD1,0xDF,Read,ACK
1.632931500000000,389,0xD1,0xFF,Read,ACK
1.632961000000000,389,0xD1,0xF3,Read,ACK
1.632992500000000,389,0xD1,0xFF,Read,ACK
1.633024000000000,389,0xD1,0xF9,Read,NAK
1.638025000000000,390,0xD0,0x3B,Write,ACK
1.638143000000000,391,0xD1,0xC2,Read,ACK
1.638174500000000,391,0xD1,0xBE,Read,ACK
1.638205500000000,391,0xD1,0x01,Read,ACK
1.638237000000000,391,0xD1,0xDE,Read,ACK
1.638270000000000,391,0xD1,0x02,Read,ACK
1.638301500000000,391,0xD1,0x08,Read,ACK
1.638332500000000,391,0xD1,0xF0,Read,ACK
1.638364000000000,391,0xD1,0xF5,Read,ACK
1.638395500000000,391,0xD1,0xFF,Read,ACK
1.638427000000000,391,0xD1,0xDE,Read,ACK
1.638458500000000,391,0xD1,0xFF,Read,ACK
1.638490000000000,391,0xD1,0xF3,Read,ACK
1.638520000000000,391,0xD1,0xFF,Read,ACK
1.638551500000000,391,0xD1,0xF8,Read,NAK
1.638716500000000,392,0xD0,0x3B,Write,ACK
1.638825500000000,393,0xD1,0xC2,Read,ACK
1.638857000000000,393,0xD1,0xBE,Read,ACK
1.638888500000000,393,0xD1,0x01,Read,ACK
1.638920500000000,393,0xD1,0xDE,Read,ACK
1.638952000000000,393,0xD1,0x02,Read,ACK
1.638983500000000,393,0xD1,0x08,Read,ACK
1.639015000000000,393,0xD1,0xF0,Read,ACK
1.639046500000000,393,0xD1,0xF5,Read,ACK
1.639078000000000,393,0xD1,0xFF,Read,ACK
1.639109500000000,393,0xD1,0xDE,Read,ACK
1.639141000000000,393,0xD1,0xFF,Read,ACK
1.639172000000000,393,0xD1,0xF3,Read,ACK
1.639203500000000,393,0xD1,0xFF,Read,ACK
1.639241500000000,393,0xD1,0xF8,Read,NAK
1.639413500000000,394,0xD0,0x3B,Write,ACK
1.639522500000000,395,0xD1,0xC2,Read,ACK
1.639552500000000,395,0xD1,0xBE,Read,ACK
1.639584000000000,395,0xD1,0x01,Read,ACK
1.639615000000000,395,0xD1,0xDE,Read,ACK
1.639646500000000,395,0xD1,0x02,Read,ACK
1.639678000000000,395,0xD1,0x08,Read,ACK
1.639709500000000,395,0xD1,0xF0,Read,ACK
1.639741000000000,395,0xD1,0xF5,Read,ACK
1.639772500000000,395,0xD1,0xFF,Read,ACK
1.639804000000000,395,0xD1,0xDE,Read,ACK
1.639835500000000,395,0xD1,0xFF,Read,ACK
1.639866500000000,395,0xD1,0xF3,Read,ACK
1.639898000000000,395,0xD1,0xFF,Read,ACK
1.639929500000000,395,0xD1,0xF8,Read,NAK
1.640094000000000,396,0xD0,0x3B,Write,ACK
1.640201500000000,397,0xD1,0xC2,Read,ACK
1.640233000000000,397,0xD1,0xC8,Read,ACK
1.640264000000000,397,0xD1,0x01,Read,ACK
1.640295500000000,397,0xD1,0xC6,Read,ACK
1.640326500000000,397,0xD1,0x02,Read,ACK
1.640357500000000,397,0xD1,0x36,Read,ACK
1.640389000000000,397,0xD1,0xF0,Read,ACK
1.640420500000000,397,0xD1,0xEF,Read,ACK
1.640452000000000,397,0xD1,0xFF,Read,ACK
1.640483500000000,397,0xD1,0xDF,Read,ACK
1.640515000000000,397,0xD1,0xFF,Read,ACK
1.640546500000000,397,0xD1,0xF2,Read,ACK
1.640580500000000,397,0xD1,0xFF,Read,ACK
1.640612000000000,397,0xD1,0xF9,Read,NAK
1.640778000000000,398,0xD0,0x3B,Write,ACK
1.640887000000000,399,0xD1,0xC2,Read,ACK
1.640918500000000,399,0xD1,0xC8,Read,ACK
1.640950000000000,399,0xD1,0x01,Read,ACK
1.640991000000000,399,0xD1,0xC6,Read,ACK
1.641022000000000,399,0xD1,0x02,Read,ACK
1.641053500000000,399,0xD1,0x36,Read,ACK
1.641085000000000,399,0xD1,0xF0,Read,ACK
1.641116500000000,399,0xD1,0xEF,Read,ACK
1.641146000000000,399,0xD1,0xFF,Read,ACK
1.641177500000000,399,0xD1,0xDF,Read,ACK
1.641209000000000,399,0xD1,0xFF,Read,ACK
1.641240500000000,399,0xD1,0xF2,Read,ACK
1.641272000000000,399,0xD1,0xFF,Read,ACK
1.641303500000000,399,0xD1,0xF9,Read,NAK
1.641472500000000,400,0xD0,0x3B,Write,ACK
1.641581500000000,401,0xD1,0xC2,Read,ACK
1.641616000000000,401,0xD1,0xC8,Read,ACK
1.641647500000000,401,0xD1,0x01,Read,ACK
1.641679000000000,401,0xD1,0xC6,Read,ACK
1.641710500000000,401,0xD1,0x02,Read,ACK
1.641741500000000,401,0xD1,0x36,Read,ACK
1.641773000000000,401,0xD1,0xF0,Read,ACK
1.641804500000000,401,0xD1,0xEF,Read,ACK
1.641836000000000,401,0xD1,0xFF,Read,ACK
1.641867500000000,401,0xD1,0xDF,Read,ACK
1.641899000000000,401,0xD1,0xFF,Read,ACK
1.641930500000000,401,0xD1,0xF2,Read,ACK
1.641962000000000,401,0xD1,0xFF,Read,ACK
1.641993000000000,401,0xD1,0xF9,Read,NAK
1.642168000000000,402,0xD0,0x3B,Write,ACK
1.642277000000000,403,0xD1,0xC2,Read,ACK
1.642308000000000,403,0xD1,0xC8,Read,ACK
1.642339500000000,403,0xD1,0x01,Read,ACK
1.642370000000000,403,0xD1,0xC6,Read,ACK
1.642401500000000,403,0xD1,0x02,Read,ACK
1.642433000000000,403,0xD1,0x36,Read,ACK
1.642464500000000,403,0xD1,0xF0,Read,ACK
1.642496000000000,403,0xD1,0xEF,Read,ACK
1.642527500000000,403,0xD1,0xFF,Read,ACK
1.642559000000000,403,0xD1,0xDF,Read,ACK
1.642590500000000,403,0xD1,0xFF,Read,ACK
1.642622000000000,403,0xD1,0xF2,Read,ACK
1.642652000000000,403,0xD1,0xFF,Read,ACK
1.642683000000000,403,0xD1,0xF9,Read,NAK
1.642849500000000,404,0xD0,0x3B,Write,ACK
1.642958500000000,405,0xD1,0xC2,Read,ACK
1.642990000000000,405,0xD1,0xC8,Read,ACK
1.643021000000000,405,0xD1,0x01,Read,ACK
1.643062000000000,405,0xD1,0xC6,Read,ACK
1.643093500000000,405,0xD1,0x02,Read,ACK
1.643125000000000,405,0xD1,0x36,Read,ACK
1.643156500000000,405,0xD1,0xF0,Read,ACK
1.643188000000000,405,0xD1,0xEF,Read,ACK
1.643219500000000,405,0xD1,0xFF,Read,ACK
1.643251000000000,405,0xD1,0xDF,Read,ACK
1.643282500000000,405,0xD1,0xFF,Read,ACK
1.643314000000000,405,0xD1,0xF2,Read,ACK
1.643345500000000,405,0xD1,0xFF,Read,ACK
1.643382000000000,405,0xD1,0xF9,Read,NAK
1.643548500000000,406,0xD0,0x3B,Write,ACK
1.643657500000000,407,0xD1,0xC2,Read,ACK
1.643687500000000,407,0xD1,0xC8,Read,ACK
1.643719000000000,407,0xD1,0x01,Read,ACK
1.643750000000000,407,0xD1,0xC6,Read,ACK
1.643781500000000,407,0xD1,0x02,Read,ACK
1.643813000000000,407,0xD1,0x36,Read,ACK
1.643844500000000,407,0xD1,0xF0,Read,ACK
1.643876000000000,407,0xD1,0xEF,Read,ACK
1.643907500000000,407,0xD1,0xFF,Read,ACK
1.643939000000000,407,0xD1,0xDF,Read,ACK
1.643970500000000,407,0xD1,0xFF,Read,ACK
1.644002000000000,407,0xD1,0xF2,Read,ACK
1.644033000000000,407,0xD1,0xFF,Read,ACK
1.644064500000000,407,0xD1,0xF9,Read,NAK
1.644240000000000,408,0xD0,0x3B,Write,ACK
1.644349000000000,409,0xD1,0xC2,Read,ACK
1.644380500000000,409,0xD1,0xC8,Read,ACK
1.644411000000000,409,0xD1,0x01,Read,ACK
1.644442500000000,409,0xD1,0xC6,Read,ACK
1.644474000000000,409,0xD1,0x02,Read,ACK
1.644505500000000,409,0xD1,0x36,Read,ACK
1.644536500000000,409,0xD1,0xF0,Read,ACK
1.644568000000000,409,0xD1,0xEF,Read,ACK
1.644599500000000,409,0xD1,0xFF,Read,ACK
1.644631000000000,409,0xD1,0xDF,Read,ACK
1.644662500000000,409,0xD1,0xFF,Read,ACK
1.644694000000000,409,0xD1,0xF2,Read,ACK
1.644724000000000,409,0xD1,0xFF,Read,ACK
1.644755500000000,409,0xD1,0xF9,Read,NAK
1.644921000000000,410,0xD0,0x3B,Write,ACK
1.645030000000000,411,0xD1,0xC2,Read,ACK
1.645061500000000,411,0xD1,0xB6,Read,ACK
1.645093000000000,411,0xD1,0x01,Read,ACK
1.645131500000000,411,0xD1,0xDC,Read,ACK
1.645172000000000,411,0xD1,0x02,Read,ACK
1.645203500000000,411,0xD1,0x70,Read,ACK
1.645235000000000,411,0xD1,0xF0,Read,ACK
1.645266000000000,411,0xD1,0xF5,Read,ACK
1.645297500000000,411,0xD1,0xFF,Read,ACK
1.645329000000000,411,0xD1,0xE0,Read,ACK
1.645360500000000,411,0xD1,0xFF,Read,ACK
1.645392000000000,411,0xD1,0xF3,Read,ACK
1.645429000000000,411,0xD1,0xFF,Read,ACK
1.645460500000000,411,0xD1,0xF8,Read,NAK
1.645625500000000,412,0xD0,0x3B,Write,ACK
1.645734000000000,413,0xD1,0xC2,Read,ACK
1.645764500000000,413,0xD1,0xB6,Read,ACK
1.645795500000000,413,0xD1,0x01,Read,ACK
1.645827000000000,413,0xD1,0xDC,Read,ACK
1.645858500000000,413,0xD1,0x02,Read,ACK
1.645890000000000,413,0xD1,0x70,Read,ACK
1.645921500000000,413,0xD1,0xF0,Read,ACK
1.645953000000000,413,0xD1,0xF5,Read,ACK
1.645984500000000,413,0xD1,0xFF,Read,ACK
1.646016000000000,413,0xD1,0xE0,Read,ACK
1.646047500000000,413,0xD1,0xFF,Read,ACK
1.646078500000000,413,0xD1,0xF3,Read,ACK
1.646110000000000,413,0xD1,0xFF,Read,ACK
1.646141500000000,413,0xD1,0xF8,Read,NAK
1.646306000000000,414,0xD0,0x3B,Write,ACK
1.646413000000000,415,0xD1,0xC2,Read,ACK
1.646450000000000,415,0xD1,0xB6,Read,ACK
1.646481500000000,415,0xD1,0x01,Read,ACK
1.646513000000000,415,0xD1,0xDC,Read,ACK
1.646544500000000,415,0xD1,0x02,Read,ACK
1.646576000000000,415,0xD1,0x70,Read,ACK
1.646607500000000,415,0xD1,0xF0,Read,ACK
1.646638500000000,415,0xD1,0xF5,Read,ACK
1.646670000000000,415,0xD1,0xFF,Read,ACK
1.646701500000000,415,0xD1,0xE0,Read,ACK
1.646733000000000,415,0xD1,0xFF,Read,ACK
1.646764500000000,415,0xD1,0xF3,Read,ACK
1.646794500000000,415,0xD1,0xFF,Read,ACK
1.646826000000000,415,0xD1,0xF8,Read,NAK
1.646992000000000,416,0xD0,0x3B,Write,ACK
1.647101000000000,417,0xD1,0xC2,Read,ACK
1.647132000000000,417,0xD1,0xB6,Read,ACK
1.647163500000000,417,0xD1,0x01,Read,ACK
1.647202500000000,417,0xD1,0xDC,Read,ACK
1.647234000000000,417,0xD1,0x02,Read,ACK
1.647274000000000,417,0xD1,0x70,Read,ACK
1.647305500000000,417,0xD1,0xF0,Read,ACK
1.647337000000000,417,0xD1,0xF5,Read,ACK
1.647368500000000,417,0xD1,0xFF,Read,ACK
1.647400000000000,417,0xD1,0xE0,Read,ACK
1.647431500000000,417,0xD1,0xFF,Read,ACK
1.647468000000000,417,0xD1,0xF3,Read,ACK
1.647499500000000,417,0xD1,0xFF,Read,ACK
1.647531000000000,417,0xD1,0xF8,Read,NAK
1.647697000000000,418,0xD0,0x3B,Write,ACK
1.647806000000000,419,0xD1,0xC2,Read,ACK
1.647836000000000,419,0xD1,0xB6,Read,ACK
1.647867500000000,419,0xD1,0x01,Read,ACK
1.647898500000000,419,0xD1,0xDC,Read,ACK
1.647930000000000,419,0xD1,0x02,Read,ACK
1.647961500000000,419,0xD1,0x70,Read,ACK
1.647993000000000,419,0xD1,0xF0,Read,ACK
1.648024500000000,419,0xD1,0xF5,Read,ACK
1.648056000000000,419,0xD1,0xFF,Read,ACK
1.648087500000000,419,0xD1,0xE0,Read,ACK
1.648119000000000,419,0xD1,0xFF,Read,ACK
1.648150500000000,419,0xD1,0xF3,Read,ACK
1.648181500000000,419,0xD1,0xFF,Read,ACK
1.648229000000000,419,0xD1,0xF8,Read,NAK
1.648403500000000,420,0xD0,0x3B,Write,ACK
1.648511500000000,421,0xD1,0xC2,Read,ACK
1.648543000000000,421,0xD1,0xB6,Read,ACK
1.648574500000000,421,0xD1,0x01,Read,ACK
1.648606000000000,421,0xD1,0xDC,Read,ACK
1.648637500000000,421,0xD1,0x02,Read,ACK
1.648669000000000,421,0xD1,0x70,Read,ACK
1.648700500000000,421,0xD1,0xF0,Read,ACK
1.648732000000000,421,0xD1,0xF5,Read,ACK
1.648763000000000,421,0xD1,0xFF,Read,ACK
1.648794500000000,421,0xD1,0xE0,Read,ACK
1.648826000000000,421,0xD1,0xFF,Read,ACK
1.648862500000000,421,0xD1,0xF3,Read,ACK
1.648894000000000,421,0xD1,0xFF,Read,ACK
1.648925500000000,421,0xD1,0xF8,Read,NAK
1.653918500000000,422,0xD0,0x3B,Write,ACK
1.654036500000000,423,0xD1,0xC2,Read,ACK
1.654068000000000,423,0xD1,0xD4,Read,ACK
1.654099500000000,423,0xD1,0x01,Read,ACK
1.654131000000000,423,0xD1,0xCE,Read,ACK
1.654162500000000,423,0xD1,0x02,Read,ACK
1.654194000000000,423,0xD1,0x52,Read,ACK
1.654225000000000,423,0xD1,0xF0,Read,ACK
1.654256500000000,423,0xD1,0xF4,Read,ACK
1.654288000000000,423,0xD1,0xFF,Read,ACK
1.654319500000000,423,0xD1,0xE1,Read,ACK
1.654351000000000,423,0xD1,0xFF,Read,ACK
1.654382500000000,423,0xD1,0xF3,Read,ACK
1.654414000000000,423,0xD1,0xFF,Read,ACK
1.654455000000000,423,0xD1,0xF8,Read,NAK
1.654621500000000,424,0xD0,0x3B,Write,ACK
1.654729500000000,425,0xD1,0xC2,Read,ACK
1.654761000000000,425,0xD1,0xD4,Read,ACK
1.654792500000000,425,0xD1,0x01,Read,ACK
1.654824000000000,425,0xD1,0xCE,Read,ACK
1.654855500000000,425,0xD1,0x02,Read,ACK
1.654886500000000,425,0xD1,0x52,Read,ACK
1.654918000000000,425,0xD1,0xF0,Read,ACK
1.654949500000000,425,0xD1,0xF4,Read,ACK
1.654981000000000,425,0xD1,0xFF,Read,ACK
1.655012500000000,425,0xD1,0xE1,Read,ACK
1.655044000000000,425,0xD1,0xFF,Read,ACK
1.655074000000000,425,0xD1,0xF3,Read,ACK
1.655105500000000,425,0xD1,0xFF,Read,ACK
1.655137000000000,425,0xD1,0xF8,Read,NAK
1.655303000000000,426,0xD0,0x3B,Write,ACK
1.655412000000000,427,0xD1,0xC2,Read,ACK
1.655443500000000,427,0xD1,0xA2,Read,ACK
1.655482500000000,427,0xD1,0x01,Read,ACK
1.655514000000000,427,0xD1,0xF6,Read,ACK
1.655545500000000,427,0xD1,0x02,Read,ACK
1.655577000000000,427,0xD1,0x82,Read,ACK
1.655608500000000,427,0xD1,0xF0,Read,ACK
1.655640000000000,427,0xD1,0xF6,Read,ACK
1.655670500000000,427,0xD1,0xFF,Read,ACK
1.655702000000000,427,0xD1,0xE1,Read,ACK
1.655733000000000,427,0xD1,0xFF,Read,ACK
1.655764500000000,427,0xD1,0xF3,Read,ACK
1.655796000000000,427,0xD1,0xFF,Read,ACK
1.655827500000000,427,0xD1,0xF8,Read,NAK
1.655993000000000,428,0xD0,0x3B,Write,ACK
1.656107000000000,429,0xD1,0xC2,Read,ACK
1.656138500000000,429,0xD1,0xA2,Read,ACK
1.656170000000000,429,0xD1,0x01,Read,ACK
1.656201500000000,429,0xD1,0xF6,Read,ACK
1.656232500000000,429,0xD1,0x02,Read,ACK
1.656264000000000,429,0xD1,0x82,Read,ACK
1.656295500000000,429,0xD1,0xF0,Read,ACK
1.656327000000000,429,0xD1,0xF6,Read,ACK
1.656358500000000,429,0xD1,0xFF,Read,ACK
1.656390000000000,429,0xD1,0xE1,Read,ACK
1.656428000000000,429,0xD1,0xFF,Read,ACK
1.656459500000000,429,0xD1,0xF3,Read,ACK
1.656491000000000,429,0xD1,0xFF,Read,ACK
1.656521000000000,429,0xD1,0xF8,Read,NAK
1.656686500000000,430,0xD0,0x3B,Write,ACK
1.656795000000000,431,0xD1,0xC2,Read,ACK
1.656826500000000,431,0xD1,0xA2,Read,ACK
1.656858000000000,431,0xD1,0x01,Read,ACK
1.656889500000000,431,0xD1,0xF6,Read,ACK
1.656921000000000,431,0xD1,0x02,Read,ACK
1.656952500000000,431,0xD1,0x82,Read,ACK
1.656984000000000,431,0xD1,0xF0,Read,ACK
1.657015500000000,431,0xD1,0xF6,Read,ACK
1.657047000000000,431,0xD1,0xFF,Read,ACK
1.657078000000000,431,0xD1,0xE1,Read,ACK
1.657109500000000,431,0xD1,0xFF,Read,ACK
1.657142000000000,431,0xD1,0xF3,Read,ACK
1.657173500000000,431,0xD1,0xFF,Read,ACK
1.657204500000000,431,0xD1,0xF8,Read,NAK
1.657371000000000,432,0xD0,0x3B,Write,ACK
1.657480000000000,433,0xD1,0xC2,Read,ACK
1.657511500000000,433,0xD1,0xA2,Read,ACK
1.657552500000000,433,0xD1,0x01,Read,ACK
1.657584000000000,433,0xD1,0xF6,Read,ACK
1.657615500000000,433,0xD1,0x02,Read,ACK
1.657647000000000,433,0xD1,0x82,Read,ACK
1.657678000000000,433,0xD1,0xF0,Read,ACK
1.657709000000000,433,0xD1,0xF6,Read,ACK
1.657740500000000,433,0xD1,0xFF,Read,ACK
1.657771500000000,433,0xD1,0xE1,Read,ACK
1.657803000000000,433,0xD1,0xFF,Read,ACK
1.657834500000000,433,0xD1,0xF3,Read,ACK
1.657866000000000,433,0xD1,0xFF,Read,ACK
1.657897500000000,433,0xD1,0xF8,Read,NAK
1.658063000000000,434,0xD0,0x3B,Write,ACK
1.658177000000000,435,0xD1,0xC2,Read,ACK
1.658208500000000,435,0xD1,0xA2,Read,ACK
1.658240000000000,435,0xD1,0x01,Read,ACK
1.658271500000000,435,0xD1,0xF6,Read,ACK
1.658302500000000,435,0xD1,0x02,Read,ACK
1.658334000000000,435,0xD1,0x82,Read,ACK
1.658365500000000,435,0xD1,0xF0,Read,ACK
1.658397000000000,435,0xD1,0xF6,Read,ACK
1.658428500000000,435,0xD1,0xFF,Read,ACK
1.658460000000000,435,0xD1,0xE1,Read,ACK
1.658491500000000,435,0xD1,0xFF,Read,ACK
1.658529500000000,435,0xD1,0xF3,Read,ACK
1.658561000000000,435,0xD1,0xFF,Read,ACK
1.658591000000000,435,0xD1,0xF8,Read,NAK
1.658762500000000,436,0xD0,0x3B,Write,ACK
1.658871500000000,437,0xD1,0xC2,Read,ACK
1.658903000000000,437,0xD1,0xA2,Read,ACK
1.658934500000000,437,0xD1,0x01,Read,ACK
1.658966000000000,437,0xD1,0xF6,Read,ACK
1.658997500000000,437,0xD1,0x02,Read,ACK
1.659028500000000,437,0xD1,0x82,Read,ACK
1.659060000000000,437,0xD1,0xF0,Read,ACK
1.659091500000000,437,0xD1,0xF6,Read,ACK
1.659123000000000,437,0xD1,0xFF,Read,ACK
1.659154500000000,437,0xD1,0xE1,Read,ACK
1.659186000000000,437,0xD1,0xFF,Read,ACK
1.659216000000000,437,0xD1,0xF3,Read,ACK
1.659247500000000,437,0xD1,0xFF,Read,ACK
1.659279000000000,437,0xD1,0xF8,Read,NAK
1.659444500000000,438,0xD0,0x3B,Write,ACK
1.659551500000000,439,0xD1,0xC2,Read,ACK
1.659583000000000,439,0xD1,0xA2,Read,ACK
1.659622000000000,439,0xD1,0x01,Read,ACK
1.659653500000000,439,0xD1,0xF6,Read,ACK
1.659684500000000,439,0xD1,0x02,Read,ACK
1.659716000000000,439,0xD1,0x82,Read,ACK
1.659749000000000,439,0xD1,0xF0,Read,ACK
1.659780500000000,439,0xD1,0xF6,Read,ACK
1.659811500000000,439,0xD1,0xFF,Read,ACK
1.659843000000000,439,0xD1,0xE1,Read,ACK
1.659874500000000,439,0xD1,0xFF,Read,ACK
1.659906000000000,439,0xD1,0xF3,Read,ACK
1.659937500000000,439,0xD1,0xFF,Read,ACK
1.659969000000000,439,0xD1,0xF8,Read,NAK
1.660134500000000,440,0xD0,0x3B,Write,ACK
1.660248500000000,441,0xD1,0xC2,Read,ACK
1.660280000000000,441,0xD1,0xC6,Read,ACK
1.660311500000000,441,0xD1,0x02,Read,ACK
1.660343000000000,441,0xD1,0x04,Read,ACK
1.660374000000000,441,0xD1,0x02,Read,ACK
1.660405500000000,441,0xD1,0x6A,Read,ACK
1.660437000000000,441,0xD1,0xF0,Read,ACK
1.660468500000000,441,0xD1,0xEF,Read,ACK
1.660500000000000,441,0xD1,0xFF,Read,ACK
1.660531500000000,441,0xD1,0xE1,Read,ACK
1.660571500000000,441,0xD1,0xFF,Read,ACK
1.660603000000000,441,0xD1,0xF4,Read,ACK
1.660650500000000,441,0xD1,0xFF,Read,ACK
1.660681500000000,441,0xD1,0xF8,Read,NAK
1.660852500000000,442,0xD0,0x3B,Write,ACK
1.660961500000000,443,0xD1,0xC2,Read,ACK
1.660993000000000,443,0xD1,0xC6,Read,ACK
1.661024500000000,443,0xD1,0x02,Read,ACK
1.661056000000000,443,0xD1,0x04,Read,ACK
1.661087000000000,443,0xD1,0x02,Read,ACK
1.661118500000000,443,0xD1,0x6A,Read,ACK
1.661150000000000,443,0xD1,0xF0,Read,ACK
1.661181500000000,443,0xD1,0xEF,Read,ACK
1.661213000000000,443,0xD1,0xFF,Read,ACK
1.661244500000000,443,0xD1,0xE1,Read,ACK
1.661283000000000,443,0xD1,0xFF,Read,ACK
1.661314500000000,443,0xD1,0xF4,Read,ACK
1.661346000000000,443,0xD1,0xFF,Read,ACK
1.661377500000000,443,0xD1,0xF8,Read,NAK
1.661543000000000,444,0xD0,0x3B,Write,ACK
1.661661000000000,445,0xD1,0xC2,Read,ACK
1.661693000000000,445,0xD1,0xC6,Read,ACK
1.661724500000000,445,0xD1,0x02,Read,ACK
1.661756000000000,445,0xD1,0x04,Read,ACK
1.661793000000000,445,0xD1,0x02,Read,ACK
1.661824500000000,445,0xD1,0x6A,Read,ACK
1.661856000000000,445,0xD1,0xF0,Read,ACK
1.661887000000000,445,0xD1,0xEF,Read,ACK
1.661918500000000,445,0xD1,0xFF,Read,ACK
1.661950000000000,445,0xD1,0xE1,Read,ACK
1.661981500000000,445,0xD1,0xFF,Read,ACK
1.662013000000000,445,0xD1,0xF4,Read,ACK
1.662044500000000,445,0xD1,0xFF,Read,ACK
1.662076000000000,445,0xD1,0xF8,Read,NAK
1.662242000000000,446,0xD0,0x3B,Write,ACK
1.662360500000000,447,0xD1,0xC2,Read,ACK
1.662392000000000,447,0xD1,0xC6,Read,ACK
1.662423500000000,447,0xD1,0x02,Read,ACK
1.662454500000000,447,0xD1,0x04,Read,ACK
1.662486000000000,447,0xD1,0x02,Read,ACK
1.662517500000000,447,0xD1,0x6A,Read,ACK
1.662558000000000,447,0xD1,0xF0,Read,ACK
1.662589500000000,447,0xD1,0xEF,Read,ACK
1.662620500000000,447,0xD1,0xFF,Read,ACK
1.662652000000000,447,0xD1,0xE1,Read,ACK
1.662683500000000,447,0xD1,0xFF,Read,ACK
1.662726500000000,447,0xD1,0xF4,Read,ACK
1.662758000000000,447,0xD1,0xFF,Read,ACK
1.662789500000000,447,0xD1,0xF8,Read,NAK
1.662954000000000,448,0xD0,0x3B,Write,ACK
1.663063000000000,449,0xD1,0xC2,Read,ACK
1.663094500000000,449,0xD1,0xC6,Read,ACK
1.663126000000000,449,0xD1,0x02,Read,ACK
1.663157500000000,449,0xD1,0x04,Read,ACK
1.663189000000000,449,0xD1,0x02,Read,ACK
1.663220500000000,449,0xD1,0x6A,Read,ACK
1.663252000000000,449,0xD1,0xF0,Read,ACK
1.663283000000000,449,0xD1,0xEF,Read,ACK
1.663314500000000,449,0xD1,0xFF,Read,ACK
1.663353500000000,449,0xD1,0xE1,Read,ACK
1.663384500000000,449,0xD1,0xFF,Read,ACK
1.663416000000000,449,0xD1,0xF4,Read,ACK
1.663447500000000,449,0xD1,0xFF,Read,ACK
1.663479000000000,449,0xD1,0xF8,Read,NAK
1.663643000000000,450,0xD0,0x3B,Write,ACK
1.663763500000000,451,0xD1,0xC2,Read,ACK
1.663795000000000,451,0xD1,0xC6,Read,ACK
1.663826000000000,451,0xD1,0x02,Read,ACK
1.663857000000000,451,0xD1,0x04,Read,ACK
1.663888000000000,451,0xD1,0x02,Read,ACK
1.663919500000000,451,0xD1,0x6A,Read,ACK
1.663951000000000,451,0xD1,0xF0,Read,ACK
1.663982500000000,451,0xD1,0xEF,Read,ACK
1.664014000000000,451,0xD1,0xFF,Read,ACK
1.664045500000000,451,0xD1,0xE1,Read,ACK
1.664077000000000,451,0xD1,0xFF,Read,ACK
1.664108500000000,451,0xD1,0xF4,Read,ACK
1.664139500000000,451,0xD1,0xFF,Read,ACK
1.664171000000000,451,0xD1,0xF8,Read,NAK
1.664337500000000,452,0xD0,0x3B,Write,ACK
1.664456000000000,453,0xD1,0xC2,Read,ACK
1.664487500000000,453,0xD1,0xC6,Read,ACK
1.664518500000000,453,0xD1,0x02,Read,ACK
1.664550000000000,453,0xD1,0x04,Read,ACK
1.664581500000000,453,0xD1,0x02,Read,ACK
1.664613000000000,453,0xD1,0x6A,Read,ACK
1.664644500000000,453,0xD1,0xF0,Read,ACK
1.664674000000000,453,0xD1,0xEF,Read,ACK
1.664705500000000,453,0xD1,0xFF,Read,ACK
1.664737000000000,453,0xD1,0xE1,Read,ACK
1.664768500000000,453,0xD1,0xFF,Read,ACK
1.664798500000000,453,0xD1,0xF4,Read,ACK
1.664830000000000,453,0xD1,0xFF,Read,ACK
1.664862500000000,453,0xD1,0xF8,Read,NAK
1.669846500000000,454,0xD0,0x3B,Write,ACK
1.669976500000000,455,0xD1,0xC2,Read,ACK
1.670008000000000,455,0xD1,0xA2,Read,ACK
1.670039500000000,455,0xD1,0x01,Read,ACK
1.670071000000000,455,0xD1,0xD2,Read,ACK
1.670102500000000,455,0xD1,0x02,Read,ACK
1.670134000000000,455,0xD1,0x70,Read,ACK
1.670165000000000,455,0xD1,0xF0,Read,ACK
1.670196500000000,455,0xD1,0xF2,Read,ACK
1.670228000000000,455,0xD1,0xFF,Read,ACK
1.670259500000000,455,0xD1,0xDF,Read,ACK
1.670291000000000,455,0xD1,0xFF,Read,ACK
1.670322500000000,455,0xD1,0xF3,Read,ACK
1.670354000000000,455,0xD1,0xFF,Read,ACK
1.670385500000000,455,0xD1,0xF8,Read,NAK
1.670552000000000,456,0xD0,0x3B,Write,ACK
1.670679000000000,457,0xD1,0xC2,Read,ACK
1.670710500000000,457,0xD1,0xA2,Read,ACK
1.670742000000000,457,0xD1,0x01,Read,ACK
1.670773500000000,457,0xD1,0xD2,Read,ACK
1.670805000000000,457,0xD1,0x02,Read,ACK
1.670836000000000,457,0xD1,0x70,Read,ACK
1.670867500000000,457,0xD1,0xF0,Read,ACK
1.670899000000000,457,0xD1,0xF2,Read,ACK
1.670930500000000,457,0xD1,0xFF,Read,ACK
1.670962000000000,457,0xD1,0xDF,Read,ACK
1.671014500000000,457,0xD1,0xFF,Read,ACK
1.671046000000000,457,0xD1,0xF3,Read,ACK
1.671077500000000,457,0xD1,0xFF,Read,ACK
1.671109000000000,457,0xD1,0xF8,Read,NAK
1.671274500000000,458,0xD0,0x3B,Write,ACK
1.671383500000000,459,0xD1,0xC2,Read,ACK
1.671415000000000,459,0xD1,0xA2,Read,ACK
1.671446500000000,459,0xD1,0x01,Read,ACK
1.671478000000000,459,0xD1,0xD2,Read,ACK
1.671509000000000,459,0xD1,0x02,Read,ACK
1.671540500000000,459,0xD1,0x70,Read,ACK
1.671572000000000,459,0xD1,0xF0,Read,ACK
1.671603500000000,459,0xD1,0xF2,Read,ACK
1.671633500000000,459,0xD1,0xFF,Read,ACK
1.671665000000000,459,0xD1,0xDF,Read,ACK
1.671696500000000,459,0xD1,0xFF,Read,ACK
1.671728000000000,459,0xD1,0xF3,Read,ACK
1.671759500000000,459,0xD1,0xFF,Read,ACK
1.671791000000000,459,0xD1,0xF8,Read,NAK
1.671962000000000,460,0xD0,0x3B,Write,ACK
1.672092500000000,461,0xD1,0xC2,Read,ACK
1.672124000000000,461,0xD1,0xA2,Read,ACK
1.672155500000000,461,0xD1,0x01,Read,ACK
1.672187000000000,461,0xD1,0xD2,Read,ACK
1.672218000000000,461,0xD1,0x02,Read,ACK
1.672249500000000,461,0xD1,0x70,Read,ACK
1.672281000000000,461,0xD1,0xF0,Read,ACK
1.672312500000000,461,0xD1,0xF2,Read,ACK
1.672344000000000,461,0xD1,0xFF,Read,ACK
1.672375500000000,461,0xD1,0xDF,Read,ACK
1.672407000000000,461,0xD1,0xFF,Read,ACK
1.672438500000000,461,0xD1,0xF3,Read,ACK
1.672470000000000,461,0xD1,0xFF,Read,ACK
1.672501000000000,461,0xD1,0xF8,Read,NAK
1.672666000000000,462,0xD0,0x3B,Write,ACK
1.672775000000000,463,0xD1,0xC2,Read,ACK
1.672806000000000,463,0xD1,0xA2,Read,ACK
1.672837500000000,463,0xD1,0x01,Read,ACK
1.672869000000000,463,0xD1,0xD2,Read,ACK
1.672900500000000,463,0xD1,0x02,Read,ACK
1.672932000000000,463,0xD1,0x70,Read,ACK
1.672972500000000,463,0xD1,0xF0,Read,ACK
1.673003500000000,463,0xD1,0xF2,Read,ACK
1.673040500000000,463,0xD1,0xFF,Read,ACK
1.673079500000000,463,0xD1,0xDF,Read,ACK
1.673111000000000,463,0xD1,0xFF,Read,ACK
1.673142000000000,463,0xD1,0xF3,Read,ACK
1.673173500000000,463,0xD1,0xFF,Read,ACK
1.673205000000000,463,0xD1,0xF8,Read,NAK
1.673370000000000,464,0xD0,0x3B,Write,ACK
1.673479000000000,465,0xD1,0xC2,Read,ACK
1.673510500000000,465,0xD1,0xA2,Read,ACK
1.673542000000000,465,0xD1,0x01,Read,ACK
1.673573500000000,465,0xD1,0xD2,Read,ACK
1.673605000000000,465,0xD1,0x02,Read,ACK
1.673636500000000,465,0xD1,0x70,Read,ACK
1.673668000000000,465,0xD1,0xF0,Read,ACK
1.673704000000000,465,0xD1,0xF2,Read,ACK
1.673735500000000,465,0xD1,0xFF,Read,ACK
1.673767000000000,465,0xD1,0xDF,Read,ACK
1.673798500000000,465,0xD1,0xFF,Read,ACK
1.673830000000000,465,0xD1,0xF3,Read,ACK
1.673870500000000,465,0xD1,0xFF,Read,ACK
1.673901500000000,465,0xD1,0xF8,Read,NAK
1.674068000000000,466,0xD0,0x3B,Write,ACK
1.674190500000000,467,0xD1,0xC2,Read,ACK
1.674222000000000,467,0xD1,0xA2,Read,ACK
1.674253500000000,467,0xD1,0x01,Read,ACK
1.674285000000000,467,0xD1,0xD2,Read,ACK
1.674316000000000,467,0xD1,0x02,Read,ACK
1.674347500000000,467,0xD1,0x70,Read,ACK
1.674379000000000,467,0xD1,0xF0,Read,ACK
1.674410500000000,467,0xD1,0xF2,Read,ACK
1.674442000000000,467,0xD1,0xFF,Read,ACK
1.674473500000000,467,0xD1,0xDF,Read,ACK
1.674505000000000,467,0xD1,0xFF,Read,ACK
1.674536500000000,467,0xD1,0xF3,Read,ACK
1.674567500000000,467,0xD1,0xFF,Read,ACK
1.674599000000000,467,0xD1,0xF8,Read,NAK
1.674773500000000,468,0xD0,0x3B,Write,ACK
1.674891500000000,469,0xD1,0xC2,Read,ACK
1.674923000000000,469,0xD1,0xA2,Read,ACK
1.674954500000000,469,0xD1,0x01,Read,ACK
1.674986000000000,469,0xD1,0xD2,Read,ACK
1.675017500000000,469,0xD1,0x02,Read,ACK
1.675048500000000,469,0xD1,0x70,Read,ACK
1.675085500000000,469,0xD1,0xF0,Read,ACK
1.675117000000000,469,0xD1,0xF2,Read,ACK
1.675149500000000,469,0xD1,0xFF,Read,ACK
1.675181000000000,469,0xD1,0xDF,Read,ACK
1.675212500000000,469,0xD1,0xFF,Read,ACK
1.675243500000000,469,0xD1,0xF3,Read,ACK
1.675275000000000,469,0xD1,0xFF,Read,ACK
1.675306500000000,469,0xD1,0xF8,Read,NAK
1.675472500000000,470,0xD0,0x3B,Write,ACK
1.675581000000000,471,0xD1,0xC2,Read,ACK
1.675612500000000,471,0xD1,0x84,Read,ACK
1.675644000000000,471,0xD1,0x02,Read,ACK
1.675675500000000,471,0xD1,0x0A,Read,ACK
1.675707000000000,471,0xD1,0x02,Read,ACK
1.675738500000000,471,0xD1,0x56,Read,ACK
1.675772500000000,471,0xD1,0xF0,Read,ACK
1.675804000000000,471,0xD1,0xF2,Read,ACK
1.675835500000000,471,0xD1,0xFF,Read,ACK
1.675867000000000,471,0xD1,0xDF,Read,ACK
1.675898500000000,471,0xD1,0xFF,Read,ACK
1.675930000000000,471,0xD1,0xF4,Read,ACK
1.675961500000000,471,0xD1,0xFF,Read,ACK
1.675993000000000,471,0xD1,0xF8,Read,NAK
1.676181500000000,472,0xD0,0x3B,Write,ACK
1.676290500000000,473,0xD1,0xC2,Read,ACK
1.676322000000000,473,0xD1,0x84,Read,ACK
1.676353500000000,473,0xD1,0x02,Read,ACK
1.676384500000000,473,0xD1,0x0A,Read,ACK
1.676416000000000,473,0xD1,0x02,Read,ACK
1.676447500000000,473,0xD1,0x56,Read,ACK
1.676479000000000,473,0xD1,0xF0,Read,ACK
1.676510500000000,473,0xD1,0xF2,Read,ACK
1.676542000000000,473,0xD1,0xFF,Read,ACK
1.676573500000000,473,0xD1,0xDF,Read,ACK
1.676605000000000,473,0xD1,0xFF,Read,ACK
1.676636000000000,473,0xD1,0xF4,Read,ACK
1.676667500000000,473,0xD1,0xFF,Read,ACK
1.676699000000000,473,0xD1,0xF8,Read,NAK
1.676883000000000,474,0xD0,0x3B,Write,ACK
1.676992000000000,475,0xD1,0xC2,Read,ACK
1.677023500000000,475,0xD1,0x84,Read,ACK
1.677055000000000,475,0xD1,0x02,Read,ACK
1.677086500000000,475,0xD1,0x0A,Read,ACK
1.677118000000000,475,0xD1,0x02,Read,ACK
1.677148500000000,475,0xD1,0x56,Read,ACK
1.677180000000000,475,0xD1,0xF0,Read,ACK
1.677218500000000,475,0xD1,0xF2,Read,ACK
1.677250000000000,475,0xD1,0xFF,Read,ACK
1.677281500000000,475,0xD1,0xDF,Read,ACK
1.677313000000000,475,0xD1,0xFF,Read,ACK
1.677344500000000,475,0xD1,0xF4,Read,ACK
1.677375500000000,475,0xD1,0xFF,Read,ACK
1.677407000000000,475,0xD1,0xF8,Read,NAK
1.677572500000000,476,0xD0,0x3B,Write,ACK
1.677681500000000,477,0xD1,0xC2,Read,ACK
1.677712500000000,477,0xD1,0x84,Read,ACK
1.677744000000000,477,0xD1,0x02,Read,ACK
1.677775500000000,477,0xD1,0x0A,Read,ACK
1.677807000000000,477,0xD1,0x02,Read,ACK
1.677843500000000,477,0xD1,0x56,Read,ACK
1.677875000000000,477,0xD1,0xF0,Read,ACK
1.677906500000000,477,0xD1,0xF2,Read,ACK
1.677938000000000,477,0xD1,0xFF,Read,ACK
1.677967500000000,477,0xD1,0xDF,Read,ACK
1.677999000000000,477,0xD1,0xFF,Read,ACK
1.678030500000000,477,0xD1,0xF4,Read,ACK
1.678061500000000,477,0xD1,0xFF,Read,ACK
1.678093000000000,477,0xD1,0xF8,Read,NAK
1.678280500000000,478,0xD0,0x3B,Write,ACK
1.678389500000000,479,0xD1,0xC2,Read,ACK
1.678420500000000,479,0xD1,0x84,Read,ACK
1.678452000000000,479,0xD1,0x02,Read,ACK
1.678483500000000,479,0xD1,0x0A,Read,ACK
1.678515000000000,479,0xD1,0x02,Read,ACK
1.678546500000000,479,0xD1,0x56,Read,ACK
1.678578000000000,479,0xD1,0xF0,Read,ACK
1.678609500000000,479,0xD1,0xF2,Read,ACK
1.678641000000000,479,0xD1,0xFF,Read,ACK
1.678672500000000,479,0xD1,0xDF,Read,ACK
1.678703500000000,479,0xD1,0xFF,Read,ACK
1.678735000000000,479,0xD1,0xF4,Read,ACK
1.678766500000000,479,0xD1,0xFF,Read,ACK
1.678798000000000,479,0xD1,0xF8,Read,NAK
1.678982000000000,480,0xD0,0x3B,Write,ACK
1.679091000000000,481,0xD1,0xC2,Read,ACK
1.679122500000000,481,0xD1,0x84,Read,ACK
1.679154000000000,481,0xD1,0x02,Read,ACK
1.679184500000000,481,0xD1,0x0A,Read,ACK
1.679216000000000,481,0xD1,0x02,Read,ACK
1.679247500000000,481,0xD1,0x56,Read,ACK
1.679288000000000,481,0xD1,0xF0,Read,ACK
1.679319500000000,481,0xD1,0xF2,Read,ACK
1.679351000000000,481,0xD1,0xFF,Read,ACK
1.679382500000000,481,0xD1,0xDF,Read,ACK
1.679414000000000,481,0xD1,0xFF,Read,ACK
1.679445500000000,481,0xD1,0xF4,Read,ACK
1.679477000000000,481,0xD1,0xFF,Read,ACK
1.679508500000000,481,0xD1,0xF8,Read,NAK
1.679674000000000,482,0xD0,0x3B,Write,ACK
1.679783000000000,483,0xD1,0xC2,Read,ACK
1.679814500000000,483,0xD1,0x84,Read,ACK
1.679846000000000,483,0xD1,0x02,Read,ACK
1.679877500000000,483,0xD1,0x0A,Read,ACK
1.679914000000000,483,0xD1,0x02,Read,ACK
1.679945000000000,483,0xD1,0x56,Read,ACK
1.679976500000000,483,0xD1,0xF0,Read,ACK
1.680008000000000,483,0xD1,0xF2,Read,ACK
1.680039500000000,483,0xD1,0xFF,Read,ACK
1.680073500000000,483,0xD1,0xDF,Read,ACK
1.680105000000000,483,0xD1,0xFF,Read,ACK
1.680136500000000,483,0xD1,0xF4,Read,ACK
1.680167500000000,483,0xD1,0xFF,Read,ACK
1.680204500000000,483,0xD1,0xF8,Read,NAK
1.680386500000000,484,0xD0,0x3B,Write,ACK
1.680495500000000,485,0xD1,0xC2,Read,ACK
1.680527000000000,485,0xD1,0xBC,Read,ACK
1.680558500000000,485,0xD1,0x01,Read,ACK
1.680590000000000,485,0xD1,0xEE,Read,ACK
1.680621000000000,485,0xD1,0x02,Read,ACK
1.680652500000000,485,0xD1,0x5C,Read,ACK
1.680684000000000,485,0xD1,0xF0,Read,ACK
1.680715500000000,485,0xD1,0xF1,Read,ACK
1.680747000000000,485,0xD1,0xFF,Read,ACK
1.680778500000000,485,0xD1,0xDF,Read,ACK
1.680810000000000,485,0xD1,0xFF,Read,ACK
1.680841500000000,485,0xD1,0xF3,Read,ACK
1.680873000000000,485,0xD1,0xFF,Read,ACK
1.680904000000000,485,0xD1,0xF8,Read,NAK
1.685936500000000,486,0xD0,0x3B,Write,ACK
1.686045500000000,487,0xD1,0xC2,Read,ACK
1.686077000000000,487,0xD1,0xAA,Read,ACK
1.686117500000000,487,0xD1,0x02,Read,ACK
1.686149000000000,487,0xD1,0x02,Read,ACK
1.686180500000000,487,0xD1,0x02,Read,ACK
1.686210000000000,487,0xD1,0x76,Read,ACK
1.686241500000000,487,0xD1,0xF0,Read,ACK
1.686273000000000,487,0xD1,0xF6,Read,ACK
1.686304500000000,487,0xD1,0xFF,Read,ACK
1.686341500000000,487,0xD1,0xE0,Read,ACK
1.686373000000000,487,0xD1,0xFF,Read,ACK
1.686404500000000,487,0xD1,0xF4,Read,ACK
1.686436000000000,487,0xD1,0xFF,Read,ACK
1.686467000000000,487,0xD1,0xF9,Read,NAK
1.686649000000000,488,0xD0,0x3B,Write,ACK
1.686758000000000,489,0xD1,0xC2,Read,ACK
1.686789500000000,489,0xD1,0xAA,Read,ACK
1.686821000000000,489,0xD1,0x02,Read,ACK
1.686852500000000,489,0xD1,0x02,Read,ACK
1.686884000000000,489,0xD1,0x02,Read,ACK
1.686915500000000,489,0xD1,0x76,Read,ACK
1.686947000000000,489,0xD1,0xF0,Read,ACK
1.686978500000000,489,0xD1,0xF6,Read,ACK
1.687009500000000,489,0xD1,0xFF,Read,ACK
1.687041000000000,489,0xD1,0xE0,Read,ACK
